# Hz S DB R 50
! CMT, S5048, 17087083, 18.1.5/2
! Date: 07/03/2018 15:12:27
! Data: Format (Calibration Info)
! Freq                      S11: dB/Ang (F2)                      S21: dB/Ang (F2)                      S12: dB/Ang (F2)                      S22: dB/Ang (F2)           
1.00000000000E+06 -2.81545872922E-03 -5.57802456530E-02 -8.44142041400E+01 -2.07068819916E+01 -1.03060573421E+02 +8.34109311322E+01 -2.24498116187E-02 +1.79550469935E+02
1.09990999100E+06 -1.38373016466E-03 -1.21613677610E-01 -9.14714694562E+01 +1.75483494418E+02 -8.55330465149E+01 +1.52121771298E+02 -2.22772248907E-02 +1.79484314359E+02
1.19981998200E+06 -2.38761698388E-03 -2.02696237946E-01 -8.97736535596E+01 -1.37483096607E+02 -8.69213774199E+01 -1.65752251322E+02 -2.01120868058E-02 +1.79421570525E+02
1.29972997300E+06 -9.92633601253E-04 -2.62192284844E-01 -9.03982186194E+01 +9.46917028431E+01 -8.98487529319E+01 -1.78306661009E+02 -2.06761608588E-02 +1.79349981731E+02
1.39963996400E+06 -2.60656808332E-03 -3.54963247651E-01 -8.29234997515E+01 -8.38269818160E+01 -8.03533585066E+01 +1.59898806088E+02 -1.99158862950E-02 +1.79297480523E+02
1.49954995500E+06 -1.46756431504E-05 -4.40125896718E-01 -8.46031004996E+01 +1.32680355133E+02 -8.76393874773E+01 -9.17234577428E+01 -1.95279270143E-02 +1.79223177076E+02
1.59945994599E+06 -1.90730479027E-03 -5.11239272600E-01 -8.44967885743E+01 +1.70468844846E+02 -9.12104678177E+01 +1.21447226584E+02 -1.86296078351E-02 +1.79158604723E+02
1.69936993699E+06 -2.14313718244E-04 -5.83950211937E-01 -8.66251641752E+01 -1.72709616977E+02 -7.94443518032E+01 -1.66436401399E+02 -1.91807053159E-02 +1.79079302203E+02
1.79927992799E+06 -1.47335882851E-03 -6.68759977477E-01 -7.99081355027E+01 -1.72643267475E+02 -8.58519040575E+01 +1.13965681118E+02 -1.94040760305E-02 +1.79005452016E+02
1.89918991899E+06 -1.54705209395E-03 -7.39445784949E-01 -8.13065744370E+01 -1.65693868236E+02 -8.40540896385E+01 +1.42203084082E+02 -1.73322187298E-02 +1.78950684124E+02
1.99909990999E+06 -1.76144150800E-04 -8.17454024665E-01 -8.37405769901E+01 +1.48942917793E+02 -8.18991633612E+01 +1.23196707857E+02 -1.89123755221E-02 +1.78870292784E+02
2.09900990099E+06 +1.53725177727E-03 -8.94210247347E-01 -8.04177819314E+01 +1.79871071919E+02 -8.12841742919E+01 -1.77947155555E+02 -1.61450380995E-02 +1.78815110714E+02
2.19891989199E+06 -1.29658026425E-03 -9.80850755583E-01 -7.90571899831E+01 +1.72311411599E+02 -8.62184230588E+01 +1.65875571150E+02 -1.62378432568E-02 +1.78726738309E+02
2.29882988299E+06 +6.14421968134E-04 -1.04585246803E+00 -8.15484557971E+01 -1.75745471341E+02 -8.11746860937E+01 +1.49047466856E+02 -1.55310049539E-02 +1.78675642609E+02
2.39873987399E+06 -7.12834064997E-04 -1.13918957228E+00 -8.05945839667E+01 +1.62975679011E+02 -7.66017365210E+01 -1.76803639449E+02 -1.62616600317E-02 +1.78604439858E+02
2.49864986499E+06 +8.35088444174E-04 -1.20858700773E+00 -7.60720755580E+01 +1.44583904116E+02 -8.06088296777E+01 +1.60331603173E+02 -1.69595450158E-02 +1.78532278655E+02
2.59855985599E+06 -2.48629215782E-03 -1.27977220207E+00 -7.67913246048E+01 +1.74882132286E+02 -8.26885381233E+01 -1.46431782300E+02 -1.59108926507E-02 +1.78467300782E+02
2.69846984698E+06 -1.23249970716E-04 -1.35619393866E+00 -7.79133570901E+01 -1.53627537924E+02 -7.52966964007E+01 -1.71963723769E+02 -1.50343997120E-02 +1.78407071448E+02
2.79837983798E+06 +5.88384068704E-04 -1.43214983286E+00 -7.25893209082E+01 +1.65738939583E+02 -7.70992733901E+01 +1.68590027782E+02 -1.58283957864E-02 +1.78321269472E+02
2.89828982898E+06 +1.93163433809E-06 -1.52053466709E+00 -7.75846139283E+01 +1.57635131026E+02 -7.57049501155E+01 +1.70477327421E+02 -1.34924703983E-02 +1.78260457057E+02
2.99819981998E+06 -3.74960107132E-04 -1.59895038753E+00 -7.62325394595E+01 +1.73533974148E+02 -7.86736213067E+01 -1.57408319290E+02 -1.48733946702E-02 +1.78189963110E+02
3.09810981098E+06 +9.98111738506E-04 -1.67963231771E+00 -7.54464954711E+01 +1.67917013970E+02 -7.85653935385E+01 +1.70856911519E+02 -1.59690368951E-02 +1.78124463686E+02
3.19801980198E+06 +4.64471452923E-04 -1.74846251081E+00 -7.94953135848E+01 -1.68267575940E+02 -7.77513187495E+01 +1.66640127386E+02 -1.52774967824E-02 +1.78042000834E+02
3.29792979298E+06 +2.30264301806E-04 -1.83062836667E+00 -7.77513088825E+01 +1.77677850095E+02 -7.33493316725E+01 +1.59110424826E+02 -1.49873216051E-02 +1.77980848700E+02
3.39783978398E+06 +9.51439277256E-04 -1.90338768546E+00 -7.41511291029E+01 +1.70582417625E+02 -7.40002584628E+01 -1.67062014849E+02 -1.55466086757E-02 +1.77912029342E+02
3.49774977498E+06 +1.34296528762E-03 -1.98210177118E+00 -7.55774036045E+01 +1.70728485318E+02 -7.37539085231E+01 -1.74493717778E+02 -1.45751008691E-02 +1.77837586403E+02
3.59765976598E+06 +1.32699396084E-03 -2.05420723636E+00 -7.71348805318E+01 +1.58944261479E+02 -7.34299951947E+01 +1.69367188742E+02 -1.46114370392E-02 +1.77768048248E+02
3.69756975698E+06 -1.43274932008E-03 -2.13648209604E+00 -7.27035240384E+01 +1.62657760397E+02 -7.18362178332E+01 -1.74045569848E+02 -1.37139008563E-02 +1.77697873418E+02
3.79747974797E+06 -2.19965534672E-04 -2.21601116512E+00 -7.31588416050E+01 +1.78212443568E+02 -7.53875096122E+01 +1.72481783600E+02 -1.57582638231E-02 +1.77640672520E+02
3.89738973897E+06 +1.66363615109E-03 -2.30093611525E+00 -7.25148247931E+01 +1.74860824934E+02 -7.52952627446E+01 -1.66308683609E+02 -1.56868115181E-02 +1.77570490031E+02
3.99729972997E+06 -4.03677000707E-04 -2.36542247021E+00 -7.40252478888E+01 -1.77955765896E+02 -7.16343372136E+01 +1.64063607878E+02 -1.36780635423E-02 +1.77495993909E+02
4.09720972097E+06 +5.52801548301E-04 -2.45402604115E+00 -6.95172616218E+01 +1.70943634808E+02 -7.21016536029E+01 +1.75027101991E+02 -1.54472100243E-02 +1.77436309655E+02
4.19711971197E+06 +2.63211103949E-03 -2.51797911928E+00 -7.18986201850E+01 +1.78497531425E+02 -7.00541121368E+01 +1.64873544522E+02 -1.49398540330E-02 +1.77358936120E+02
4.29702970297E+06 -2.08694152263E-04 -2.60549977368E+00 -7.09219827385E+01 +1.65808203933E+02 -7.04697917423E+01 +1.73940542288E+02 -1.59142170505E-02 +1.77289934886E+02
4.39693969397E+06 +1.49106402550E-03 -2.66938912423E+00 -7.19683833060E+01 +1.71692721633E+02 -7.03856278529E+01 +1.79073253928E+02 -1.51459624098E-02 +1.77230283162E+02
4.49684968497E+06 +9.18468698213E-04 -2.75725338319E+00 -7.04933907635E+01 +1.73323991661E+02 -6.94912687988E+01 +1.69952637386E+02 -1.46315217607E-02 +1.77162267514E+02
4.59675967597E+06 +2.05799666773E-03 -2.84690515323E+00 -6.91248905008E+01 +1.75137679027E+02 -7.00102997578E+01 -1.77492658493E+02 -1.48818303636E-02 +1.77080003328E+02
4.69666966697E+06 +1.10555560980E-03 -2.91944432602E+00 -7.07616995536E+01 +1.79418762029E+02 -7.04543146941E+01 +1.70340242589E+02 -1.48230112782E-02 +1.77023817491E+02
4.79657965797E+06 -4.53252664451E-04 -3.00208922053E+00 -6.95250581140E+01 +1.70061677694E+02 -7.08545338175E+01 +1.67358061844E+02 -1.54123419847E-02 +1.76939717160E+02
4.89648964896E+06 +1.74655999856E-03 -3.07252400398E+00 -6.89748599364E+01 +1.57758768301E+02 -6.75423048528E+01 +1.70464279988E+02 -1.56325614630E-02 +1.76869108414E+02
4.99639963996E+06 +1.04014244461E-03 -3.14356334699E+00 -6.84032658385E+01 +1.76416575076E+02 -6.83967841783E+01 +1.72975086191E+02 -1.47416441786E-02 +1.76810826473E+02
5.09630963096E+06 -1.98473624040E-03 -3.22503042304E+00 -6.83766406323E+01 +1.75562506587E+02 -6.82769268679E+01 -1.77066334972E+02 -1.52221126894E-02 +1.76741135578E+02
5.19621962196E+06 +5.00481092385E-04 -3.31220742162E+00 -6.87605259434E+01 +1.74327848009E+02 -6.84123803017E+01 +1.73728036969E+02 -1.43007235649E-02 +1.76676062520E+02
5.29612961296E+06 +5.19920412095E-04 -3.38845128244E+00 -6.78248497439E+01 +1.75954173864E+02 -6.80568369763E+01 +1.77347425807E+02 -1.71797860086E-02 +1.76606335072E+02
5.39603960396E+06 +1.17148756832E-03 -3.46615832955E+00 -6.78117231121E+01 +1.76950472323E+02 -6.72768993354E+01 +1.73817811775E+02 -1.58113450829E-02 +1.76534138236E+02
5.49594959496E+06 +1.08854812780E-05 -3.54739784393E+00 -6.73733028840E+01 +1.70084948370E+02 -6.66123250081E+01 +1.70333863695E+02 -1.59875008268E-02 +1.76464964261E+02
5.59585958596E+06 +3.68618639545E-04 -3.60897781664E+00 -6.54080257171E+01 +1.72826748172E+02 -6.62107825073E+01 +1.71409889392E+02 -1.56209597342E-02 +1.76407288346E+02
5.69576957696E+06 -4.20454569146E-04 -3.71080672177E+00 -6.65340052220E+01 +1.69422258611E+02 -6.72378508116E+01 +1.70720556895E+02 -1.72833621262E-02 +1.76316564057E+02
5.79567956796E+06 +1.23936249803E-03 -3.77417669795E+00 -6.69325243101E+01 +1.70297880712E+02 -6.62407692250E+01 +1.74421348014E+02 -1.75140074796E-02 +1.76264219704E+02
5.89558955896E+06 +1.18487330578E-03 -3.86015411047E+00 -6.51626998279E+01 +1.69663869742E+02 -6.63957603274E+01 +1.72077263902E+02 -1.74832245958E-02 +1.76192424874E+02
5.99549954995E+06 -2.42294176302E-04 -3.93780739182E+00 -6.56242178312E+01 +1.72296199616E+02 -6.60510909339E+01 +1.78959106897E+02 -1.72654350340E-02 +1.76112543011E+02
6.09540954095E+06 +1.25580050429E-03 -4.00688782067E+00 -6.54449995709E+01 +1.69902272883E+02 -6.58370290864E+01 +1.66192951684E+02 -1.62798116174E-02 +1.76056187335E+02
6.19531953195E+06 +1.30364954522E-03 -4.07885248572E+00 -6.49694967784E+01 +1.71582143310E+02 -6.54080841902E+01 +1.73569886097E+02 -2.00955180472E-02 +1.75984076528E+02
6.29522952295E+06 +1.20553336545E-03 -4.17257839731E+00 -6.50317627413E+01 +1.74802152036E+02 -6.52586008888E+01 +1.66924543173E+02 -1.63309418074E-02 +1.75908209101E+02
6.39513951395E+06 +1.23474478795E-03 -4.24672815462E+00 -6.40409106824E+01 +1.69147006809E+02 -6.51531054489E+01 +1.72975732975E+02 -1.71732022149E-02 +1.75849694913E+02
6.49504950495E+06 +1.45059827033E-03 -4.32940224503E+00 -6.40496938267E+01 +1.74986443715E+02 -6.39445595420E+01 +1.69302846788E+02 -1.61671331216E-02 +1.75768738006E+02
6.59495949595E+06 +2.43067251123E-03 -4.39533812961E+00 -6.42055197178E+01 +1.70617776178E+02 -6.39261833820E+01 +1.70588533418E+02 -1.70831059901E-02 +1.75708349965E+02
6.69486948695E+06 +1.22000534048E-03 -4.49479782563E+00 -6.43611587776E+01 +1.68397572889E+02 -6.36031870140E+01 +1.68828276821E+02 -1.70476163657E-02 +1.75635391471E+02
6.79477947795E+06 +1.58565985362E-03 -4.57966879580E+00 -6.33563266416E+01 +1.74036881607E+02 -6.26967034447E+01 +1.78043239505E+02 -1.68504295309E-02 +1.75571755102E+02
6.89468946895E+06 +1.80309991763E-03 -4.63696252364E+00 -6.30890280047E+01 +1.70825650638E+02 -6.41071892790E+01 +1.75145457584E+02 -1.59048413559E-02 +1.75491360038E+02
6.99459945995E+06 -1.88248721691E-03 -4.73293915553E+00 -6.23994746758E+01 +1.74172334168E+02 -6.35531144255E+01 +1.75262149800E+02 -1.60510024121E-02 +1.75422283661E+02
7.09450945095E+06 +1.05733413976E-03 -4.80256474279E+00 -6.20803700120E+01 +1.65956809665E+02 -6.24472018139E+01 +1.70940262612E+02 -1.85790647112E-02 +1.75347256054E+02
7.19441944194E+06 +2.27123303072E-03 -4.88940981643E+00 -6.26895071051E+01 +1.75388806993E+02 -6.24537055913E+01 +1.73174209528E+02 -1.73211757917E-02 +1.75284724302E+02
7.29432943294E+06 +1.01182036537E-03 -4.97196344095E+00 -6.18878888977E+01 +1.75232863659E+02 -6.18657058903E+01 +1.71952971386E+02 -1.76268774336E-02 +1.75224590244E+02
7.39423942394E+06 -1.76054245322E-04 -5.05249383899E+00 -6.18377860800E+01 +1.67993062115E+02 -6.24164567395E+01 +1.71115645651E+02 -1.88551359442E-02 +1.75149014138E+02
7.49414941494E+06 +2.62062238669E-03 -5.12479131274E+00 -6.21168393657E+01 +1.73731229478E+02 -6.17117830601E+01 +1.69024571578E+02 -1.73744497261E-02 +1.75068229271E+02
7.59405940594E+06 +3.75239428954E-03 -5.21197185378E+00 -6.11217324686E+01 +1.72737917459E+02 -6.10507988616E+01 +1.70450206410E+02 -1.66722420566E-02 +1.75019954125E+02
7.69396939694E+06 +1.83676850996E-03 -5.28242227467E+00 -6.09597268517E+01 +1.74185981236E+02 -6.12617290426E+01 +1.70611349378E+02 -1.90709861474E-02 +1.74943989422E+02
7.79387938794E+06 +1.03068642325E-03 -5.37143869010E+00 -6.15155584714E+01 +1.73004014576E+02 -6.13796308824E+01 +1.70962876266E+02 -1.92326936198E-02 +1.74873547706E+02
7.89378937894E+06 +1.44865647876E-03 -5.44184706630E+00 -6.08347572096E+01 +1.74310595050E+02 -6.10207682463E+01 +1.71337733032E+02 -1.79171083228E-02 +1.74820982388E+02
7.99369936994E+06 +2.96140102716E-03 -5.53499194119E+00 -6.09633411000E+01 +1.71571269797E+02 -6.05958884558E+01 +1.73605990171E+02 -1.98650022742E-02 +1.74726374881E+02
8.09360936094E+06 +1.67389286453E-03 -5.59954987198E+00 -6.03961791917E+01 +1.74240420110E+02 -6.02183093601E+01 +1.70791352663E+02 -1.93952309233E-02 +1.74661517838E+02
8.19351935194E+06 +1.51162959727E-03 -5.69511882380E+00 -6.07073160566E+01 +1.67947567609E+02 -5.97611765451E+01 +1.71718175478E+02 -1.82664857396E-02 +1.74582839293E+02
8.29342934293E+06 +2.65996804333E-03 -5.77288581472E+00 -6.05221677634E+01 +1.74636485411E+02 -5.97627759916E+01 +1.73773208823E+02 -1.96860272094E-02 +1.74518632713E+02
8.39333933393E+06 -1.68496359120E-04 -5.84454860778E+00 -6.06716489111E+01 +1.70421718746E+02 -5.98847392306E+01 +1.75063497573E+02 -2.09862643747E-02 +1.74446953498E+02
8.49324932493E+06 +1.21138456023E-03 -5.93286453321E+00 -5.97628402112E+01 +1.71852731384E+02 -5.97936450897E+01 +1.71451440998E+02 -1.92241053105E-02 +1.74379967308E+02
8.59315931593E+06 +2.78770116148E-03 -6.00751756883E+00 -5.94539783460E+01 +1.70696931925E+02 -5.92710337814E+01 +1.71404441550E+02 -1.94880310731E-02 +1.74313198202E+02
8.69306930693E+06 +2.12073610975E-03 -6.08701580431E+00 -5.88277209383E+01 +1.71988524830E+02 -5.92483760651E+01 +1.71831774152E+02 -2.01709281077E-02 +1.74227050612E+02
8.79297929793E+06 +4.58244417292E-04 -6.17166439479E+00 -5.85960522632E+01 +1.73076393072E+02 -5.87902139303E+01 +1.70842253494E+02 -1.85193445434E-02 +1.74163948851E+02
8.89288928893E+06 +1.25962493730E-04 -6.24919503285E+00 -5.88827117974E+01 +1.72290004464E+02 -5.83006595918E+01 +1.69889786508E+02 -2.05806958594E-02 +1.74103525260E+02
8.99279927993E+06 +1.15889007382E-03 -6.32174039206E+00 -5.86849934466E+01 +1.70530895786E+02 -5.84991180603E+01 +1.70365056617E+02 -1.93854774083E-02 +1.74027874154E+02
9.09270927093E+06 +5.09302984460E-04 -6.41040274214E+00 -5.83688224959E+01 +1.71026356130E+02 -5.82323749146E+01 +1.72708259233E+02 -1.98879892677E-02 +1.73951129909E+02
9.19261926193E+06 +3.21005264448E-03 -6.49701519178E+00 -5.82833765929E+01 +1.73686256615E+02 -5.83595027999E+01 +1.70398976042E+02 -1.89623494308E-02 +1.73877654504E+02
9.29252925293E+06 -2.73426541762E-04 -6.56729755102E+00 -5.79087403273E+01 +1.71566233129E+02 -5.74456692910E+01 +1.70666321647E+02 -2.07767063666E-02 +1.73821971694E+02
9.39243924392E+06 +3.24669559414E-03 -6.65089917839E+00 -5.75326126087E+01 +1.71758592253E+02 -5.78725120203E+01 +1.70600975754E+02 -1.98143203428E-02 +1.73760543411E+02
9.49234923492E+06 +3.03748833718E-03 -6.74583276368E+00 -5.79186713143E+01 +1.71525651571E+02 -5.78766585636E+01 +1.71329259854E+02 -1.93558413211E-02 +1.73674571468E+02
9.59225922592E+06 +3.16284665422E-03 -6.82742513019E+00 -5.75523528738E+01 +1.70450512178E+02 -5.74285339691E+01 +1.74106318196E+02 -2.08322316624E-02 +1.73605353828E+02
9.69216921692E+06 +2.01605129868E-03 -6.89122825881E+00 -5.71465948363E+01 +1.68603429490E+02 -5.75179980969E+01 +1.68233489411E+02 -2.23001588673E-02 +1.73534253669E+02
9.79207920792E+06 +7.67275910315E-04 -6.97548748854E+00 -5.70138995800E+01 +1.69392927781E+02 -5.66893918555E+01 +1.69845665643E+02 -2.08822984146E-02 +1.73464956238E+02
9.89198919892E+06 +6.76320672236E-04 -7.07065654858E+00 -5.67630907017E+01 +1.70823029119E+02 -5.67493903565E+01 +1.66304551394E+02 -2.21409934902E-02 +1.73378015941E+02
9.99189918992E+06 +9.44490096307E-04 -7.13439180485E+00 -5.66912078657E+01 +1.70419863310E+02 -5.65777812871E+01 +1.70640712659E+02 -2.29720653253E-02 +1.73335051539E+02
1.00918091809E+07 +1.08148572543E-03 -7.21545677972E+00 -5.62745336213E+01 +1.69339154097E+02 -5.63961296117E+01 +1.69298853735E+02 -1.99154656522E-02 +1.73268106396E+02
1.01917191719E+07 +2.47768405695E-03 -7.31619474455E+00 -5.61471478472E+01 +1.72918880327E+02 -5.62201220501E+01 +1.70497114193E+02 -2.35332340307E-02 +1.73184476704E+02
1.02916291629E+07 +4.69192350713E-03 -7.38898460890E+00 -5.62051446779E+01 +1.69981889669E+02 -5.60350130529E+01 +1.69551889158E+02 -1.87488766598E-02 +1.73111682289E+02
1.03915391539E+07 +2.00530596551E-03 -7.47113436664E+00 -5.58453465375E+01 +1.70402613682E+02 -5.59132142265E+01 +1.70017329528E+02 -2.27593688800E-02 +1.73037082995E+02
1.04914491449E+07 +2.11786131499E-03 -7.56262337595E+00 -5.57254820315E+01 +1.69213228767E+02 -5.60024705081E+01 +1.71314748077E+02 -2.08162452111E-02 +1.72969593642E+02
1.05913591359E+07 +3.44606582955E-03 -7.63874496576E+00 -5.55463438335E+01 +1.71271626017E+02 -5.58212376460E+01 +1.71746351885E+02 -2.24088248237E-02 +1.72880556485E+02
1.06912691269E+07 +3.07403604642E-03 -7.72212392867E+00 -5.52122341115E+01 +1.70330914146E+02 -5.51201019013E+01 +1.71235331205E+02 -2.21301821532E-02 +1.72835681692E+02
1.07911791179E+07 +2.52658244650E-03 -7.79545976611E+00 -5.54228610062E+01 +1.70221183053E+02 -5.52988907923E+01 +1.71311033538E+02 -2.29790616894E-02 +1.72737818280E+02
1.08910891089E+07 +1.12192521046E-03 -7.88966563736E+00 -5.51115958222E+01 +1.70330659110E+02 -5.50947855305E+01 +1.71248512743E+02 -2.41875182201E-02 +1.72676655281E+02
1.09909990999E+07 +3.24260560361E-03 -7.96678344532E+00 -5.48659776790E+01 +1.69180336126E+02 -5.50295765658E+01 +1.71574773956E+02 -2.52227930768E-02 +1.72591242813E+02
1.10909090909E+07 +2.44364682366E-04 -8.06552481177E+00 -5.47640578336E+01 +1.70136215314E+02 -5.50232357814E+01 +1.68286141093E+02 -2.29412013067E-02 +1.72530560164E+02
1.11908190819E+07 +1.52614694735E-03 -8.12246310454E+00 -5.45705258674E+01 +1.69566556556E+02 -5.47527945214E+01 +1.70632817012E+02 -2.17910752167E-02 +1.72451432323E+02
1.12907290729E+07 +2.61427358493E-03 -8.20870718454E+00 -5.43208547167E+01 +1.70422306082E+02 -5.45470178050E+01 +1.69525817282E+02 -2.49043976079E-02 +1.72371807060E+02
1.13906390639E+07 +8.60447323874E-04 -8.30805933901E+00 -5.42226857808E+01 +1.69162883193E+02 -5.44687152161E+01 +1.70438997864E+02 -2.43001739471E-02 +1.72323864628E+02
1.14905490549E+07 +2.54161176206E-03 -8.38346335473E+00 -5.42271598705E+01 +1.68915679932E+02 -5.42620207697E+01 +1.68885641843E+02 -2.49011612857E-02 +1.72238533858E+02
1.15904590459E+07 +1.47918451127E-03 -8.45382822865E+00 -5.41513506240E+01 +1.68176155725E+02 -5.38039444003E+01 +1.69679538956E+02 -2.28418340947E-02 +1.72169336908E+02
1.16903690369E+07 +2.51038746996E-03 -8.55927423420E+00 -5.39894853880E+01 +1.69363353254E+02 -5.36779206212E+01 +1.70304468758E+02 -2.20454550882E-02 +1.72116183852E+02
1.17902790279E+07 +2.25705872774E-03 -8.62490529191E+00 -5.38572460415E+01 +1.69153749051E+02 -5.37337565659E+01 +1.69875678938E+02 -2.31536744336E-02 +1.72024555454E+02
1.18901890189E+07 +3.53859457289E-03 -8.72423757412E+00 -5.36583774350E+01 +1.67903975756E+02 -5.33623227323E+01 +1.71296790932E+02 -2.40170976886E-02 +1.71966384408E+02
1.19900990099E+07 +2.53156775419E-03 -8.81168838809E+00 -5.34149157037E+01 +1.70285982887E+02 -5.34252605105E+01 +1.70970791729E+02 -2.47130323021E-02 +1.71880415339E+02
1.20900090009E+07 +1.21645117760E-03 -8.88819821522E+00 -5.33763961033E+01 +1.70302538552E+02 -5.34004439739E+01 +1.69934783254E+02 -2.25663265008E-02 +1.71811400055E+02
1.21899189919E+07 +3.69660532070E-03 -8.98265666170E+00 -5.29741158425E+01 +1.69204315397E+02 -5.30646286837E+01 +1.70100730175E+02 -2.53442497453E-02 +1.71734627306E+02
1.22898289829E+07 +2.59752934976E-03 -9.06891528763E+00 -5.29564720491E+01 +1.68317253137E+02 -5.31018816401E+01 +1.69030392861E+02 -2.33057611564E-02 +1.71656424653E+02
1.23897389739E+07 +4.26731544999E-03 -9.15381041028E+00 -5.26529513546E+01 +1.69304598597E+02 -5.26653137569E+01 +1.69898749043E+02 -2.36863764440E-02 +1.71595127199E+02
