# Hz S MA R 50
! CMT, S5048, 17087083, 18.1.5/2
! Date: 07/03/2018 15:11:06
! Data: Format (Calibration Info)
! Freq                     S11: Mag/Ang (F2)                     S21: Mag/Ang (F2)                     S12: Mag/Ang (F2)                     S22: Mag/Ang (F2)           
1.00000000000E+06 +9.99863439617E-01 -1.02197263321E-01 +4.44435799516E-05 +1.37750087970E+02 +2.42474304877E-05 +1.77912895540E+01 +9.97577324054E-01 +1.79512202691E+02
1.09990999100E+06 +9.99920138160E-01 -1.69887711389E-01 +9.15363946077E-06 -1.16972450166E+02 +1.05006240072E-04 -1.08375684355E+02 +9.97745657307E-01 +1.79460801351E+02
1.19981998200E+06 +9.99851144410E-01 -2.47057362534E-01 +5.24550883271E-05 +7.86872727000E+01 +3.84121461031E-05 +9.70881946640E+01 +9.97763231708E-01 +1.79390379712E+02
1.29972997300E+06 +9.99977872506E-01 -3.18972404557E-01 +4.00373171960E-05 -1.31210171556E+02 +5.16757729123E-05 -7.28300728016E+01 +9.97788967086E-01 +1.79319549732E+02
1.39963996400E+06 +9.99944763200E-01 -3.99080608179E-01 +6.45381931187E-05 -1.70045729724E+02 +7.07314811025E-05 +1.18750966647E+02 +9.97934450110E-01 +1.79262388096E+02
1.49954995500E+06 +1.00003679812E+00 -4.78105571227E-01 +6.31688435628E-05 -1.68278005415E+02 +8.80357740453E-06 -6.43807699235E+01 +9.97983875534E-01 +1.79193313329E+02
1.59945994599E+06 +9.99925971576E-01 -5.51595805684E-01 +2.45252507313E-05 -3.24535297889E+01 +5.57628903851E-05 -1.50316463391E+02 +9.98009618682E-01 +1.79128638577E+02
1.69936993699E+06 +1.00005382429E+00 -6.32638218637E-01 +3.86648321581E-05 +1.53938652326E+02 +5.78862622479E-05 -1.50113106922E+02 +9.97911899529E-01 +1.79051881992E+02
1.79927992799E+06 +9.99880871936E-01 -7.15050822084E-01 +5.78747988007E-05 +1.19151016115E+02 +2.75630800383E-05 +1.62881541067E+02 +9.98056796098E-01 +1.78982682473E+02
1.89918991899E+06 +9.99905650449E-01 -7.90843354228E-01 +6.21289822255E-05 -1.46947920490E+02 +9.31703678193E-05 +1.58487505107E+02 +9.97920053848E-01 +1.78915251544E+02
1.99909990999E+06 +1.00005535148E+00 -8.65928023281E-01 +2.24019498345E-05 -1.73399733742E+02 +6.28194620918E-05 +1.12151015057E+02 +9.97932836023E-01 +1.78842251739E+02
2.09900990099E+06 +1.00007724503E+00 -9.48572208276E-01 +3.60225759906E-05 -1.60122347024E+02 +5.34441300741E-05 +1.60893043208E+02 +9.98227107386E-01 +1.78778599520E+02
2.19891989199E+06 +9.99935610404E-01 -1.01984743866E+00 +6.61670708484E-05 +8.75351917734E+01 +1.29301958945E-04 +1.78784727304E+02 +9.98085661124E-01 +1.78697819914E+02
2.29882988299E+06 +1.00014825535E+00 -1.09511917677E+00 +1.27787323494E-04 -1.59311534592E+02 +3.07759072655E-05 +1.74249902429E+02 +9.98229253421E-01 +1.78646816846E+02
2.39873987399E+06 +9.99847114797E-01 -1.17332824772E+00 +1.39957114882E-04 +1.77853195762E+02 +6.85437873693E-05 -1.40052074994E+02 +9.98161590071E-01 +1.78573179773E+02
2.49864986499E+06 +1.00010271636E+00 -1.25371082118E+00 +1.55197105517E-04 +1.47186564301E+02 +1.41201069693E-04 +1.68895192945E+02 +9.98041160590E-01 +1.78503249020E+02
2.59855985599E+06 +9.99654539324E-01 -1.32571818652E+00 +8.59970293054E-05 +1.48334291104E+02 +1.27967595858E-04 +1.54416831647E+02 +9.98310294415E-01 +1.78428408141E+02
2.69846984698E+06 +9.99903987485E-01 -1.40401700776E+00 +1.29627532330E-04 +1.48016191042E+02 +9.17077813904E-05 -1.76277831315E+02 +9.98291101709E-01 +1.78365358203E+02
2.79837983798E+06 +1.00001551620E+00 -1.49138642596E+00 +1.35039399260E-04 +1.55758075519E+02 +1.38673187972E-04 -1.70815286224E+02 +9.98242287195E-01 +1.78299312077E+02
2.89828982898E+06 +9.99976494611E-01 -1.56808283749E+00 +1.17963340685E-04 -1.56564745468E+02 +1.57022258211E-04 +1.67811105541E+02 +9.98349260900E-01 +1.78227844930E+02
2.99819981998E+06 +1.00008808889E+00 -1.64027430286E+00 +1.05115881413E-04 +1.69101438613E+02 +1.19962356718E-04 +1.73370572460E+02 +9.98267616759E-01 +1.78163968129E+02
3.09810981098E+06 +1.00009559076E+00 -1.71856454338E+00 +1.23889782415E-04 +1.76318943381E+02 +2.00586476934E-04 +1.60802497172E+02 +9.98319249922E-01 +1.78092543792E+02
3.19801980198E+06 +1.00005707660E+00 -1.79836601528E+00 +1.85673350764E-04 +1.72688644242E+02 +1.31646949974E-04 +1.54086692058E+02 +9.98252054224E-01 +1.78022793130E+02
3.29792979298E+06 +1.00010185270E+00 -1.87940888632E+00 +1.18582202435E-04 +1.76010512168E+02 +1.81244169917E-04 -1.66311073426E+02 +9.98428142442E-01 +1.77947494791E+02
3.39783978398E+06 +1.00002080392E+00 -1.95005293672E+00 +1.15695251639E-04 +1.56112920636E+02 +2.16311688469E-04 -1.77118238722E+02 +9.98334250709E-01 +1.77882188856E+02
3.49774977498E+06 +9.99941841489E-01 -2.03206834268E+00 +1.33902953903E-04 +1.75185148959E+02 +1.33468333067E-04 +1.48662278092E+02 +9.98397553966E-01 +1.77817290230E+02
3.59765976598E+06 +1.00002269935E+00 -2.10257775004E+00 +1.74439419981E-04 -1.78588102091E+02 +1.98509500664E-04 -1.70989438195E+02 +9.98257539035E-01 +1.77747730857E+02
3.69756975698E+06 +1.00008572517E+00 -2.19213673019E+00 +2.47449643485E-04 +1.64190493177E+02 +1.84675819588E-04 +1.78345972322E+02 +9.98349278087E-01 +1.77678612003E+02
3.79747974797E+06 +1.00004149829E+00 -2.26516788703E+00 +2.14874311573E-04 +1.66475838380E+02 +2.12062895919E-04 +1.63892115298E+02 +9.98305239075E-01 +1.77611600418E+02
3.89738973897E+06 +1.00003869994E+00 -2.33708031376E+00 +2.60939883851E-04 +1.69398447467E+02 +2.13857649911E-04 -1.71091397066E+02 +9.98359730316E-01 +1.77545073907E+02
3.99729972997E+06 +9.99997925757E-01 -2.41027602492E+00 +2.51067534658E-04 +1.77899207798E+02 +2.03290961069E-04 +1.68155441475E+02 +9.98556732592E-01 +1.77479931583E+02
4.09720972097E+06 +1.00009726313E+00 -2.49144132761E+00 +2.33652763412E-04 +1.65347471589E+02 +2.08961211762E-04 +1.64914077093E+02 +9.98477736293E-01 +1.77414294775E+02
4.19711971197E+06 +1.00023838057E+00 -2.57069173673E+00 +2.55346333070E-04 +1.70819061262E+02 +2.54862158772E-04 +1.77673675212E+02 +9.98297428736E-01 +1.77341615893E+02
4.29702970297E+06 +1.00014128786E+00 -2.64413355008E+00 +2.95082143128E-04 +1.75349487921E+02 +2.76810874444E-04 +1.71295509047E+02 +9.98106424135E-01 +1.77266502632E+02
4.39693969397E+06 +1.00012053531E+00 -2.71868913427E+00 +2.42055744141E-04 +1.75564437950E+02 +2.55476743233E-04 -1.79082178178E+02 +9.98330236388E-01 +1.77194385074E+02
4.49684968497E+06 +1.00023851690E+00 -2.80987556048E+00 +3.16477668114E-04 +1.72265717985E+02 +2.96080123369E-04 +1.74363506582E+02 +9.98339584819E-01 +1.77131260217E+02
4.59675967597E+06 +1.00014848687E+00 -2.88214078730E+00 +2.05229197169E-04 +1.62341390641E+02 +2.70442988261E-04 -1.79515762791E+02 +9.98284913860E-01 +1.77062422403E+02
4.69666966697E+06 +1.00017655727E+00 -2.96711623782E+00 +3.47219214100E-04 +1.78770613914E+02 +3.01901008321E-04 +1.67289951225E+02 +9.98313248779E-01 +1.77003737937E+02
4.79657965797E+06 +9.99939518959E-01 -3.04584116965E+00 +3.45196353279E-04 +1.58867893661E+02 +3.78794638398E-04 -1.79690459230E+02 +9.98226822013E-01 +1.76925261452E+02
4.89648964896E+06 +1.00027394338E+00 -3.11122628958E+00 +3.01450205332E-04 -1.78693951384E+02 +3.70221007053E-04 +1.73642315666E+02 +9.98228101226E-01 +1.76847828634E+02
4.99639963996E+06 +1.00012725101E+00 -3.19851632718E+00 +4.02322865205E-04 +1.79020711687E+02 +4.04735821458E-04 +1.70356454837E+02 +9.98529690262E-01 +1.76788314679E+02
5.09630963096E+06 +1.00003695152E+00 -3.28426930843E+00 +4.15295813172E-04 +1.69715822987E+02 +4.07117973276E-04 +1.79631790427E+02 +9.98300450368E-01 +1.76719393148E+02
5.19621962196E+06 +1.00000694680E+00 -3.35805722347E+00 +3.78830536823E-04 +1.75879533298E+02 +3.68357322574E-04 +1.69480291374E+02 +9.98356607213E-01 +1.76634763180E+02
5.29612961296E+06 +9.99900532492E-01 -3.42316919277E+00 +4.31316756134E-04 +1.72328427282E+02 +3.94206239384E-04 +1.70307178418E+02 +9.98130796926E-01 +1.76574909193E+02
5.39603960396E+06 +1.00006991094E+00 -3.51015346457E+00 +3.09726938315E-04 +1.75246686376E+02 +3.91901637054E-04 +1.59907892405E+02 +9.98176606929E-01 +1.76499685439E+02
5.49594959496E+06 +9.99898549999E-01 -3.59606067722E+00 +4.82683758692E-04 +1.70661369027E+02 +4.48653930416E-04 +1.75787904141E+02 +9.98090502536E-01 +1.76440365872E+02
5.59585958596E+06 +9.99933812246E-01 -3.66302865502E+00 +4.39431949497E-04 +1.76226206638E+02 +4.00465613000E-04 +1.75040627915E+02 +9.98230471788E-01 +1.76379301512E+02
5.69576957696E+06 +1.00014712729E+00 -3.75231407663E+00 +5.00922217691E-04 +1.68600013724E+02 +4.97727803261E-04 +1.64025876126E+02 +9.98058825911E-01 +1.76299719615E+02
5.79567956796E+06 +1.00026353031E+00 -3.82619769351E+00 +5.36083286816E-04 +1.66062400424E+02 +5.08649674113E-04 +1.72646863634E+02 +9.98151038004E-01 +1.76239029702E+02
5.89558955896E+06 +1.00006809823E+00 -3.90592393790E+00 +5.18110126607E-04 +1.66592264762E+02 +5.53396082255E-04 +1.68802239322E+02 +9.98077611822E-01 +1.76158636721E+02
5.99549954995E+06 +1.00002533537E+00 -3.98358254283E+00 +5.41105084826E-04 +1.76919961636E+02 +5.17881091391E-04 +1.78479219462E+02 +9.98081864596E-01 +1.76091790559E+02
6.09540954095E+06 +1.00004397399E+00 -4.05639989722E+00 +5.09791061865E-04 +1.70798090716E+02 +6.25626723799E-04 +1.74108401190E+02 +9.97945685781E-01 +1.76028715470E+02
6.19531953195E+06 +1.00008199538E+00 -4.12609767273E+00 +5.77342875229E-04 +1.79414883836E+02 +5.55736952529E-04 +1.79211112112E+02 +9.97781908476E-01 +1.75965952801E+02
6.29522952295E+06 +1.00008449442E+00 -4.22111639027E+00 +5.14996324676E-04 +1.72761834139E+02 +5.70041281995E-04 +1.70763356240E+02 +9.98157547916E-01 +1.75876792760E+02
6.39513951395E+06 +1.00006669212E+00 -4.29607488040E+00 +5.90003008301E-04 +1.68074630235E+02 +5.71774453489E-04 +1.77016734342E+02 +9.98099824947E-01 +1.75824290286E+02
6.49504950495E+06 +9.99879440458E-01 -4.37713307593E+00 +6.05574450805E-04 +1.74677214581E+02 +6.23687619871E-04 +1.75516538793E+02 +9.98229277185E-01 +1.75751787186E+02
6.59495949595E+06 +1.00008745897E+00 -4.44895368095E+00 +5.51783902252E-04 +1.71345862479E+02 +6.64961757904E-04 +1.69133299732E+02 +9.98138211939E-01 +1.75685899216E+02
6.69486948695E+06 +1.00005228099E+00 -4.54388322172E+00 +6.29176955710E-04 +1.68993278648E+02 +6.92000492495E-04 +1.73477702326E+02 +9.97874059831E-01 +1.75607386472E+02
6.79477947795E+06 +1.00001895653E+00 -4.61048837371E+00 +6.46870470952E-04 +1.67107875863E+02 +7.10043505025E-04 +1.74703591768E+02 +9.97814707561E-01 +1.75545588756E+02
6.89468946895E+06 +1.00013977716E+00 -4.68681462179E+00 +6.95034935159E-04 +1.72693819436E+02 +6.00721309223E-04 +1.72691358838E+02 +9.98010633409E-01 +1.75468781433E+02
6.99459945995E+06 +1.00002837691E+00 -4.77602685013E+00 +6.17947420794E-04 +1.74042985501E+02 +7.33277187466E-04 +1.69545291613E+02 +9.98049824536E-01 +1.75400720243E+02
7.09450945095E+06 +1.00015040097E+00 -4.84207221864E+00 +7.97649162381E-04 +1.73045387692E+02 +7.09939717677E-04 +1.70538057644E+02 +9.98081214925E-01 +1.75321092590E+02
7.19441944194E+06 +1.00008781841E+00 -4.92453627952E+00 +8.03319747606E-04 +1.75750502975E+02 +7.05731144107E-04 +1.71697416728E+02 +9.97886141336E-01 +1.75255043849E+02
7.29432943294E+06 +9.99895522191E-01 -5.02097346490E+00 +7.52703397701E-04 +1.70426675775E+02 +7.64455586373E-04 +1.69899717164E+02 +9.97807309479E-01 +1.75199153686E+02
7.39423942394E+06 +1.00001773990E+00 -5.08528681190E+00 +8.21849854368E-04 +1.71924336033E+02 +7.57460372283E-04 +1.68505126158E+02 +9.97746115077E-01 +1.75123231885E+02
7.49414941494E+06 +1.00012166759E+00 -5.17111659433E+00 +7.86295063299E-04 +1.68643626249E+02 +8.15505556416E-04 +1.69556704306E+02 +9.97919368177E-01 +1.75051419496E+02
7.59405940594E+06 +1.00035573733E+00 -5.24238773510E+00 +8.65398362590E-04 +1.72683509920E+02 +8.56286731415E-04 +1.69367308538E+02 +9.97878188990E-01 +1.75002309286E+02
7.69396939694E+06 +1.00019079844E+00 -5.33108604951E+00 +8.06385994904E-04 +1.70565868391E+02 +8.19343168454E-04 +1.74624704584E+02 +9.97893598187E-01 +1.74920929389E+02
7.79387938794E+06 +1.00018445554E+00 -5.41432103606E+00 +8.79980432560E-04 +1.73939739221E+02 +8.97596973831E-04 +1.71104425610E+02 +9.97924157116E-01 +1.74856562960E+02
7.89378937894E+06 +1.00018110933E+00 -5.48952621755E+00 +9.16130215017E-04 +1.75192633565E+02 +8.80657027425E-04 +1.70882765577E+02 +9.97997075216E-01 +1.74793099513E+02
7.99369936994E+06 +1.00041424602E+00 -5.58400590748E+00 +9.07101168916E-04 +1.71022665632E+02 +8.66338843398E-04 +1.72661665875E+02 +9.97908229792E-01 +1.74700652938E+02
8.09360936094E+06 +1.00040279991E+00 -5.65574515012E+00 +9.11561112659E-04 +1.72190199042E+02 +9.46900204633E-04 +1.63536858433E+02 +9.97905085905E-01 +1.74642434639E+02
8.19351935194E+06 +1.00023069737E+00 -5.74526665663E+00 +9.36576077079E-04 +1.72460044608E+02 +9.92367592967E-04 +1.71371290449E+02 +9.97848595817E-01 +1.74564381660E+02
8.29342934293E+06 +1.00023317385E+00 -5.81688418449E+00 +1.00030003834E-03 +1.68799565117E+02 +1.00476496516E-03 +1.66490670341E+02 +9.97681752300E-01 +1.74484145063E+02
8.39333933393E+06 +1.00016335750E+00 -5.91236592110E+00 +1.02138021660E-03 +1.73032945492E+02 +1.03704625749E-03 +1.70762153811E+02 +9.97706516846E-01 +1.74413852944E+02
8.49324932493E+06 +1.00006182316E+00 -5.97977723413E+00 +1.00713430034E-03 +1.70700434610E+02 +1.10548004070E-03 +1.73367330308E+02 +9.97762133028E-01 +1.74362404061E+02
8.59315931593E+06 +1.00020550049E+00 -6.05203079791E+00 +1.02107556588E-03 +1.69901433601E+02 +1.04299173316E-03 +1.70563980470E+02 +9.97788287755E-01 +1.74287871724E+02
8.69306930693E+06 +1.00015953957E+00 -6.13078608623E+00 +1.11073320479E-03 +1.69704046559E+02 +1.04827572871E-03 +1.71816846609E+02 +9.97818860914E-01 +1.74224414586E+02
8.79297929793E+06 +1.00010823025E+00 -6.21442723290E+00 +1.10144741297E-03 +1.69733090107E+02 +1.18204970004E-03 +1.72719478900E+02 +9.97685318005E-01 +1.74150582335E+02
8.89288928893E+06 +1.00005203834E+00 -6.29868154528E+00 +1.10735766311E-03 +1.70167020063E+02 +1.07615131448E-03 +1.69219436742E+02 +9.97440892897E-01 +1.74078722797E+02
8.99279927993E+06 +1.00014504571E+00 -6.37795913503E+00 +1.14977769524E-03 +1.66881884133E+02 +1.15261929345E-03 +1.70142710782E+02 +9.97697355961E-01 +1.74003977411E+02
9.09270927093E+06 +9.99872154601E-01 -6.45425301097E+00 +1.18102195915E-03 +1.73323565737E+02 +1.21652528921E-03 +1.73966732674E+02 +9.97721347958E-01 +1.73928791135E+02
9.19261926193E+06 +1.00000247290E+00 -6.54103148605E+00 +1.24664099501E-03 +1.72989177799E+02 +1.23377342301E-03 +1.70366948064E+02 +9.97720569054E-01 +1.73865836449E+02
9.29252925293E+06 +9.99989735741E-01 -6.61425630297E+00 +1.24851462866E-03 +1.71457350028E+02 +1.29056733456E-03 +1.72034406206E+02 +9.97760795904E-01 +1.73790609018E+02
9.39243924392E+06 +1.00003648869E+00 -6.70581575438E+00 +1.35768084440E-03 +1.69997221676E+02 +1.32167994420E-03 +1.72270267160E+02 +9.97762124883E-01 +1.73740231147E+02
9.49234923492E+06 +1.00017947587E+00 -6.79371359173E+00 +1.24958466739E-03 +1.69708920733E+02 +1.30019684622E-03 +1.70606145792E+02 +9.97601957600E-01 +1.73650261470E+02
9.59225922592E+06 +1.00031400559E+00 -6.86591667941E+00 +1.37698065876E-03 +1.71231735004E+02 +1.39143700889E-03 +1.70614532995E+02 +9.97694759793E-01 +1.73582299659E+02
9.69216921692E+06 +1.00024495843E+00 -6.94223378829E+00 +1.35402953848E-03 +1.72037025345E+02 +1.39216521585E-03 +1.70617975910E+02 +9.97729837466E-01 +1.73512744721E+02
9.79207920792E+06 +1.00021279584E+00 -7.02005150261E+00 +1.43777795456E-03 +1.73777216882E+02 +1.43793087593E-03 +1.71267181382E+02 +9.97554248315E-01 +1.73450183385E+02
9.89198919892E+06 +1.00014607151E+00 -7.12557372223E+00 +1.44003462738E-03 +1.69423464296E+02 +1.42318668651E-03 +1.69866513383E+02 +9.97369074334E-01 +1.73380290288E+02
9.99189918992E+06 +1.00008987788E+00 -7.18062048135E+00 +1.47899450727E-03 +1.69023632610E+02 +1.45920171206E-03 +1.69025914969E+02 +9.97333981623E-01 +1.73305353608E+02
1.00918091809E+07 +1.00027268571E+00 -7.26819269855E+00 +1.52209468137E-03 +1.69374364999E+02 +1.51788789325E-03 +1.68819541441E+02 +9.97462600460E-01 +1.73252753400E+02
1.01917191719E+07 +1.00012131463E+00 -7.35402304639E+00 +1.49444224508E-03 +1.67897583865E+02 +1.46218021321E-03 +1.69854073418E+02 +9.97645491290E-01 +1.73159650192E+02
1.02916291629E+07 +1.00027046970E+00 -7.44385847170E+00 +1.61040440120E-03 +1.71220395156E+02 +1.47991285386E-03 +1.71476019230E+02 +9.98003543683E-01 +1.73089784741E+02
1.03915391539E+07 +1.00013734855E+00 -7.51689359382E+00 +1.57152431420E-03 +1.71013793868E+02 +1.56823647297E-03 +1.69701493013E+02 +9.97313752374E-01 +1.73036179103E+02
1.04914491449E+07 +1.00012734002E+00 -7.59841297397E+00 +1.61634655081E-03 +1.70894312800E+02 +1.63556588221E-03 +1.71599570607E+02 +9.97742378379E-01 +1.72956604524E+02
1.05913591359E+07 +1.00044379104E+00 -7.68600502243E+00 +1.68469502415E-03 +1.71697034200E+02 +1.60945338478E-03 +1.69984116096E+02 +9.97521095005E-01 +1.72882774635E+02
1.06912691269E+07 +1.00038622498E+00 -7.77205455230E+00 +1.69029589640E-03 +1.70112096002E+02 +1.73757496132E-03 +1.71113361715E+02 +9.97329287050E-01 +1.72825715926E+02
1.07911791179E+07 +1.00009991516E+00 -7.85691915271E+00 +1.69158935432E-03 +1.70808496992E+02 +1.66996173676E-03 +1.67693034481E+02 +9.97277433824E-01 +1.72732805959E+02
1.08910891089E+07 +1.00017359188E+00 -7.94112794733E+00 +1.81686742263E-03 +1.68946744548E+02 +1.75314902401E-03 +1.69331794444E+02 +9.97326642229E-01 +1.72666944336E+02
1.09909990999E+07 +1.00035096278E+00 -8.01229670732E+00 +1.79250418613E-03 +1.68331709275E+02 +1.76242353683E-03 +1.71194704270E+02 +9.97297661250E-01 +1.72568809362E+02
1.10909090909E+07 +1.00023018063E+00 -8.09893708323E+00 +1.85663631685E-03 +1.69723784160E+02 +1.80504541007E-03 +1.68563124431E+02 +9.97365201534E-01 +1.72507011442E+02
1.11908190819E+07 +1.00010207047E+00 -8.16728872221E+00 +1.85015851005E-03 +1.68594918533E+02 +1.83617931179E-03 +1.68502941465E+02 +9.97362752954E-01 +1.72456982138E+02
1.12907290729E+07 +1.00038543078E+00 -8.25273415325E+00 +1.89479525139E-03 +1.68805333078E+02 +1.88013710356E-03 +1.69523488667E+02 +9.97357812756E-01 +1.72361531571E+02
1.13906390639E+07 +1.00030833338E+00 -8.36043567333E+00 +1.85396092595E-03 +1.70080390176E+02 +1.91302713538E-03 +1.69430157392E+02 +9.97140372106E-01 +1.72296414918E+02
1.14905490549E+07 +1.00041177632E+00 -8.43265161848E+00 +1.91453488291E-03 +1.70443840075E+02 +1.94569851495E-03 +1.70360993446E+02 +9.97298642537E-01 +1.72220550829E+02
1.15904590459E+07 +9.99894463018E-01 -8.51018539740E+00 +1.99845347031E-03 +1.68578199999E+02 +1.97641759783E-03 +1.70366455624E+02 +9.97467090346E-01 +1.72158140951E+02
1.16903690369E+07 +1.00000099516E+00 -8.60088055732E+00 +2.02524799930E-03 +1.68826226287E+02 +2.00036810212E-03 +1.68208183248E+02 +9.97408548351E-01 +1.72087937018E+02
1.17902790279E+07 +1.00015664716E+00 -8.66969340777E+00 +2.02010746850E-03 +1.69755413456E+02 +2.07326697612E-03 +1.69325252560E+02 +9.97290711820E-01 +1.72010337289E+02
1.18901890189E+07 +1.00037130783E+00 -8.77649980636E+00 +2.08301833505E-03 +1.68255929246E+02 +2.03450047675E-03 +1.68916800316E+02 +9.97247344383E-01 +1.71939350863E+02
1.19900990099E+07 +1.00017101743E+00 -8.84821262948E+00 +2.10469706549E-03 +1.68614197014E+02 +2.18013669640E-03 +1.68899829436E+02 +9.97240261241E-01 +1.71862925515E+02
1.20900090009E+07 +1.00021819266E+00 -8.95817792147E+00 +2.10349688558E-03 +1.69207031707E+02 +2.13841127681E-03 +1.67381509341E+02 +9.97282330081E-01 +1.71790129128E+02
1.21899189919E+07 +1.00028490335E+00 -9.01364017256E+00 +2.19453230790E-03 +1.69177834192E+02 +2.20897994050E-03 +1.69418765397E+02 +9.96969154385E-01 +1.71723436057E+02
1.22898289829E+07 +1.00030341786E+00 -9.11214956260E+00 +2.28710434753E-03 +1.69958320371E+02 +2.26103908660E-03 +1.70594531034E+02 +9.97083452722E-01 +1.71642458085E+02
1.23897389739E+07 +1.00037452241E+00 -9.18407734456E+00 +2.29020449343E-03 +1.70318262255E+02 +2.26813674618E-03 +1.68299517979E+02 +9.97413222471E-01 +1.71571990492E+02
