! COPPER MOUNTAIN TECHNOLOGIES, TR5048, 17097159, 18.1.2/2.0
! Date: 05/03/2018 15:10:04
! Data: Format [Calibration Info]
! Freq          	S11: dB/Ang OP                 	S21: dB/Ang OP                 	S12: dB/Ang                    	S22: dB/Ang                    
# HZ S DB R 50
1.00000000E+06	-5.87340406E+00	 1.79751796E+02	-5.89051298E+00	-2.53528068E-01	 0.00000000E+00	 0.00000000E+00	 0.00000000E+00	 0.00000000E+00
1.29992999E+06	-5.87685265E+00	 1.79680143E+02	-5.89246116E+00	-3.29969043E-01	 0.00000000E+00	 0.00000000E+00	 0.00000000E+00	 0.00000000E+00
1.59985999E+06	-5.87828573E+00	 1.79606251E+02	-5.89277105E+00	-4.11212857E-01	 0.00000000E+00	 0.00000000E+00	 0.00000000E+00	 0.00000000E+00
1.89978998E+06	-5.87816906E+00	 1.79561641E+02	-5.89377818E+00	-4.78964145E-01	 0.00000000E+00	 0.00000000E+00	 0.00000000E+00	 0.00000000E+00
2.19971997E+06	-5.88067704E+00	 1.79516074E+02	-5.89384531E+00	-5.50859668E-01	 0.00000000E+00	 0.00000000E+00	 0.00000000E+00	 0.00000000E+00
2.49964996E+06	-5.88254845E+00	 1.79454924E+02	-5.89628838E+00	-6.07464967E-01	 0.00000000E+00	 0.00000000E+00	 0.00000000E+00	 0.00000000E+00
2.79957996E+06	-5.88334390E+00	 1.79407406E+02	-5.89830347E+00	-6.69114530E-01	 0.00000000E+00	 0.00000000E+00	 0.00000000E+00	 0.00000000E+00
3.09950995E+06	-5.88415807E+00	 1.79358627E+02	-5.89899177E+00	-7.46914164E-01	 0.00000000E+00	 0.00000000E+00	 0.00000000E+00	 0.00000000E+00
3.39943994E+06	-5.88674478E+00	 1.79309628E+02	-5.90130648E+00	-8.04960551E-01	 0.00000000E+00	 0.00000000E+00	 0.00000000E+00	 0.00000000E+00
3.69936994E+06	-5.88568531E+00	 1.79266230E+02	-5.90164418E+00	-8.73301329E-01	 0.00000000E+00	 0.00000000E+00	 0.00000000E+00	 0.00000000E+00
3.99929993E+06	-5.88936558E+00	 1.79214913E+02	-5.90133777E+00	-9.32000016E-01	 0.00000000E+00	 0.00000000E+00	 0.00000000E+00	 0.00000000E+00
4.29922992E+06	-5.88965862E+00	 1.79174815E+02	-5.90356791E+00	-9.95943116E-01	 0.00000000E+00	 0.00000000E+00	 0.00000000E+00	 0.00000000E+00
4.59915992E+06	-5.89034940E+00	 1.79117734E+02	-5.90263366E+00	-1.04913504E+00	 0.00000000E+00	 0.00000000E+00	 0.00000000E+00	 0.00000000E+00
4.89908991E+06	-5.89305042E+00	 1.79075314E+02	-5.90474173E+00	-1.11503233E+00	 0.00000000E+00	 0.00000000E+00	 0.00000000E+00	 0.00000000E+00
5.19901990E+06	-5.89317171E+00	 1.79029879E+02	-5.90631616E+00	-1.18273601E+00	 0.00000000E+00	 0.00000000E+00	 0.00000000E+00	 0.00000000E+00
5.49894989E+06	-5.89371630E+00	 1.78982489E+02	-5.90647463E+00	-1.24999743E+00	 0.00000000E+00	 0.00000000E+00	 0.00000000E+00	 0.00000000E+00
5.79887989E+06	-5.89563800E+00	 1.78937851E+02	-5.90798104E+00	-1.33236889E+00	 0.00000000E+00	 0.00000000E+00	 0.00000000E+00	 0.00000000E+00
6.09880988E+06	-5.89580876E+00	 1.78889016E+02	-5.90869080E+00	-1.36876007E+00	 0.00000000E+00	 0.00000000E+00	 0.00000000E+00	 0.00000000E+00
6.39873987E+06	-5.89721493E+00	 1.78836390E+02	-5.91038746E+00	-1.43219871E+00	 0.00000000E+00	 0.00000000E+00	 0.00000000E+00	 0.00000000E+00
6.69866987E+06	-5.89916567E+00	 1.78780942E+02	-5.91113403E+00	-1.50634397E+00	 0.00000000E+00	 0.00000000E+00	 0.00000000E+00	 0.00000000E+00
6.99859986E+06	-5.90162794E+00	 1.78743146E+02	-5.91252544E+00	-1.55990072E+00	 0.00000000E+00	 0.00000000E+00	 0.00000000E+00	 0.00000000E+00
7.29852985E+06	-5.90118430E+00	 1.78705820E+02	-5.91296522E+00	-1.61394697E+00	 0.00000000E+00	 0.00000000E+00	 0.00000000E+00	 0.00000000E+00
7.59845985E+06	-5.90371286E+00	 1.78663405E+02	-5.91504217E+00	-1.66301578E+00	 0.00000000E+00	 0.00000000E+00	 0.00000000E+00	 0.00000000E+00
7.89838984E+06	-5.90135238E+00	 1.78619735E+02	-5.91396255E+00	-1.72755467E+00	 0.00000000E+00	 0.00000000E+00	 0.00000000E+00	 0.00000000E+00
8.19831983E+06	-5.90403746E+00	 1.78560535E+02	-5.91569449E+00	-1.80539235E+00	 0.00000000E+00	 0.00000000E+00	 0.00000000E+00	 0.00000000E+00
8.49824982E+06	-5.90627871E+00	 1.78530748E+02	-5.91680494E+00	-1.85107569E+00	 0.00000000E+00	 0.00000000E+00	 0.00000000E+00	 0.00000000E+00
8.79817982E+06	-5.90946743E+00	 1.78486701E+02	-5.92101452E+00	-1.94225242E+00	 0.00000000E+00	 0.00000000E+00	 0.00000000E+00	 0.00000000E+00
9.09810981E+06	-5.90991364E+00	 1.78437746E+02	-5.91854110E+00	-1.98493537E+00	 0.00000000E+00	 0.00000000E+00	 0.00000000E+00	 0.00000000E+00
9.39803980E+06	-5.91002107E+00	 1.78387861E+02	-5.92057454E+00	-2.05216642E+00	 0.00000000E+00	 0.00000000E+00	 0.00000000E+00	 0.00000000E+00
9.69796980E+06	-5.91182373E+00	 1.78321538E+02	-5.92140455E+00	-2.11313572E+00	 0.00000000E+00	 0.00000000E+00	 0.00000000E+00	 0.00000000E+00
9.99789979E+06	-5.91162888E+00	 1.78302050E+02	-5.92130292E+00	-2.16245337E+00	 0.00000000E+00	 0.00000000E+00	 0.00000000E+00	 0.00000000E+00
1.02978298E+07	-5.91433126E+00	 1.78256965E+02	-5.92414854E+00	-2.21844211E+00	 0.00000000E+00	 0.00000000E+00	 0.00000000E+00	 0.00000000E+00
1.05977598E+07	-5.91492541E+00	 1.78212663E+02	-5.92587275E+00	-2.28028905E+00	 0.00000000E+00	 0.00000000E+00	 0.00000000E+00	 0.00000000E+00
1.08976898E+07	-5.91767156E+00	 1.78156560E+02	-5.92778476E+00	-2.35212673E+00	 0.00000000E+00	 0.00000000E+00	 0.00000000E+00	 0.00000000E+00
1.11976198E+07	-5.91573699E+00	 1.78114488E+02	-5.92768679E+00	-2.41573844E+00	 0.00000000E+00	 0.00000000E+00	 0.00000000E+00	 0.00000000E+00
1.14975498E+07	-5.91941263E+00	 1.78079125E+02	-5.93206760E+00	-2.46945203E+00	 0.00000000E+00	 0.00000000E+00	 0.00000000E+00	 0.00000000E+00
1.17974797E+07	-5.92316505E+00	 1.78041500E+02	-5.93030901E+00	-2.51455373E+00	 0.00000000E+00	 0.00000000E+00	 0.00000000E+00	 0.00000000E+00
1.20974097E+07	-5.92108014E+00	 1.77984817E+02	-5.93243973E+00	-2.58185347E+00	 0.00000000E+00	 0.00000000E+00	 0.00000000E+00	 0.00000000E+00
1.23973397E+07	-5.92316043E+00	 1.77972870E+02	-5.93043824E+00	-2.64257621E+00	 0.00000000E+00	 0.00000000E+00	 0.00000000E+00	 0.00000000E+00
1.26972697E+07	-5.92315248E+00	 1.77905454E+02	-5.93143097E+00	-2.70827389E+00	 0.00000000E+00	 0.00000000E+00	 0.00000000E+00	 0.00000000E+00
1.29971997E+07	-5.92807147E+00	 1.77877570E+02	-5.93610936E+00	-2.76059782E+00	 0.00000000E+00	 0.00000000E+00	 0.00000000E+00	 0.00000000E+00
1.32971297E+07	-5.93015682E+00	 1.77811898E+02	-5.93697828E+00	-2.81200072E+00	 0.00000000E+00	 0.00000000E+00	 0.00000000E+00	 0.00000000E+00
1.35970597E+07	-5.93328702E+00	 1.77786862E+02	-5.94034200E+00	-2.87514208E+00	 0.00000000E+00	 0.00000000E+00	 0.00000000E+00	 0.00000000E+00
1.38969897E+07	-5.93134334E+00	 1.77759351E+02	-5.94065220E+00	-2.92342005E+00	 0.00000000E+00	 0.00000000E+00	 0.00000000E+00	 0.00000000E+00
1.41969197E+07	-5.93293181E+00	 1.77694675E+02	-5.94190137E+00	-2.99381931E+00	 0.00000000E+00	 0.00000000E+00	 0.00000000E+00	 0.00000000E+00
1.44968497E+07	-5.93430480E+00	 1.77654701E+02	-5.94199765E+00	-3.05967357E+00	 0.00000000E+00	 0.00000000E+00	 0.00000000E+00	 0.00000000E+00
1.47967797E+07	-5.93506198E+00	 1.77613463E+02	-5.94427135E+00	-3.11544476E+00	 0.00000000E+00	 0.00000000E+00	 0.00000000E+00	 0.00000000E+00
1.50967097E+07	-5.93611187E+00	 1.77564484E+02	-5.94392589E+00	-3.18244082E+00	 0.00000000E+00	 0.00000000E+00	 0.00000000E+00	 0.00000000E+00
1.53966397E+07	-5.94027063E+00	 1.77537166E+02	-5.94831256E+00	-3.22388416E+00	 0.00000000E+00	 0.00000000E+00	 0.00000000E+00	 0.00000000E+00
1.56965697E+07	-5.94209390E+00	 1.77482866E+02	-5.94950301E+00	-3.29308531E+00	 0.00000000E+00	 0.00000000E+00	 0.00000000E+00	 0.00000000E+00
1.59964996E+07	-5.94278350E+00	 1.77449795E+02	-5.94914899E+00	-3.33602626E+00	 0.00000000E+00	 0.00000000E+00	 0.00000000E+00	 0.00000000E+00
1.62964296E+07	-5.94418927E+00	 1.77408453E+02	-5.95205490E+00	-3.39208128E+00	 0.00000000E+00	 0.00000000E+00	 0.00000000E+00	 0.00000000E+00
1.65963596E+07	-5.94715748E+00	 1.77366537E+02	-5.95084704E+00	-3.45555074E+00	 0.00000000E+00	 0.00000000E+00	 0.00000000E+00	 0.00000000E+00
1.68962896E+07	-5.94709905E+00	 1.77339776E+02	-5.95264036E+00	-3.50344926E+00	 0.00000000E+00	 0.00000000E+00	 0.00000000E+00	 0.00000000E+00
1.71962196E+07	-5.94834231E+00	 1.77289544E+02	-5.95453332E+00	-3.56573508E+00	 0.00000000E+00	 0.00000000E+00	 0.00000000E+00	 0.00000000E+00
1.74961496E+07	-5.95264784E+00	 1.77243361E+02	-5.95705363E+00	-3.62951719E+00	 0.00000000E+00	 0.00000000E+00	 0.00000000E+00	 0.00000000E+00
1.77960796E+07	-5.95267571E+00	 1.77225616E+02	-5.96058630E+00	-3.66829050E+00	 0.00000000E+00	 0.00000000E+00	 0.00000000E+00	 0.00000000E+00
1.80960096E+07	-5.95480309E+00	 1.77153771E+02	-5.96014324E+00	-3.74678055E+00	 0.00000000E+00	 0.00000000E+00	 0.00000000E+00	 0.00000000E+00
1.83959396E+07	-5.95506516E+00	 1.77114192E+02	-5.95980173E+00	-3.79848125E+00	 0.00000000E+00	 0.00000000E+00	 0.00000000E+00	 0.00000000E+00
1.86958696E+07	-5.95969028E+00	 1.77102722E+02	-5.96444443E+00	-3.83301642E+00	 0.00000000E+00	 0.00000000E+00	 0.00000000E+00	 0.00000000E+00
1.89957996E+07	-5.95807932E+00	 1.77033080E+02	-5.96418796E+00	-3.89701584E+00	 0.00000000E+00	 0.00000000E+00	 0.00000000E+00	 0.00000000E+00
1.92957296E+07	-5.96050135E+00	 1.77025532E+02	-5.96487411E+00	-3.94110126E+00	 0.00000000E+00	 0.00000000E+00	 0.00000000E+00	 0.00000000E+00
1.95956596E+07	-5.96558697E+00	 1.76964220E+02	-5.96856738E+00	-4.01919129E+00	 0.00000000E+00	 0.00000000E+00	 0.00000000E+00	 0.00000000E+00
1.98955896E+07	-5.96314674E+00	 1.76908088E+02	-5.97012682E+00	-4.08314156E+00	 0.00000000E+00	 0.00000000E+00	 0.00000000E+00	 0.00000000E+00
2.01955196E+07	-5.96910507E+00	 1.76875966E+02	-5.97380943E+00	-4.13002918E+00	 0.00000000E+00	 0.00000000E+00	 0.00000000E+00	 0.00000000E+00
2.04954495E+07	-5.96769104E+00	 1.76846445E+02	-5.97282070E+00	-4.18764941E+00	 0.00000000E+00	 0.00000000E+00	 0.00000000E+00	 0.00000000E+00
2.07953795E+07	-5.96833908E+00	 1.76816496E+02	-5.97132166E+00	-4.21596844E+00	 0.00000000E+00	 0.00000000E+00	 0.00000000E+00	 0.00000000E+00
2.10953095E+07	-5.97175583E+00	 1.76753189E+02	-5.97335732E+00	-4.29494910E+00	 0.00000000E+00	 0.00000000E+00	 0.00000000E+00	 0.00000000E+00
2.13952395E+07	-5.97020529E+00	 1.76718966E+02	-5.97449233E+00	-4.35279699E+00	 0.00000000E+00	 0.00000000E+00	 0.00000000E+00	 0.00000000E+00
2.16951695E+07	-5.97673826E+00	 1.76683838E+02	-5.98361566E+00	-4.39092269E+00	 0.00000000E+00	 0.00000000E+00	 0.00000000E+00	 0.00000000E+00
2.19950995E+07	-5.97886040E+00	 1.76663433E+02	-5.98168479E+00	-4.45011325E+00	 0.00000000E+00	 0.00000000E+00	 0.00000000E+00	 0.00000000E+00
2.22950295E+07	-5.97943059E+00	 1.76608305E+02	-5.98319346E+00	-4.50027409E+00	 0.00000000E+00	 0.00000000E+00	 0.00000000E+00	 0.00000000E+00
2.25949595E+07	-5.98110521E+00	 1.76590089E+02	-5.98268934E+00	-4.55840875E+00	 0.00000000E+00	 0.00000000E+00	 0.00000000E+00	 0.00000000E+00
2.28948895E+07	-5.97905206E+00	 1.76563903E+02	-5.98363312E+00	-4.59241617E+00	 0.00000000E+00	 0.00000000E+00	 0.00000000E+00	 0.00000000E+00
2.31948195E+07	-5.98394454E+00	 1.76511496E+02	-5.98658804E+00	-4.66401821E+00	 0.00000000E+00	 0.00000000E+00	 0.00000000E+00	 0.00000000E+00
2.34947495E+07	-5.98994980E+00	 1.76472190E+02	-5.98942241E+00	-4.72939587E+00	 0.00000000E+00	 0.00000000E+00	 0.00000000E+00	 0.00000000E+00
2.37946795E+07	-5.98716485E+00	 1.76430270E+02	-5.99016363E+00	-4.78530841E+00	 0.00000000E+00	 0.00000000E+00	 0.00000000E+00	 0.00000000E+00
2.40946095E+07	-5.98995963E+00	 1.76384189E+02	-5.99311634E+00	-4.82087331E+00	 0.00000000E+00	 0.00000000E+00	 0.00000000E+00	 0.00000000E+00
2.43945395E+07	-5.98877455E+00	 1.76350937E+02	-5.99447416E+00	-4.87241267E+00	 0.00000000E+00	 0.00000000E+00	 0.00000000E+00	 0.00000000E+00
2.46944694E+07	-5.98992043E+00	 1.76317340E+02	-5.99196791E+00	-4.92685512E+00	 0.00000000E+00	 0.00000000E+00	 0.00000000E+00	 0.00000000E+00
2.49943994E+07	-5.99147372E+00	 1.76300545E+02	-5.99340152E+00	-4.98842650E+00	 0.00000000E+00	 0.00000000E+00	 0.00000000E+00	 0.00000000E+00
2.52943294E+07	-5.99638022E+00	 1.76267587E+02	-5.99814130E+00	-5.02551128E+00	 0.00000000E+00	 0.00000000E+00	 0.00000000E+00	 0.00000000E+00
2.55942594E+07	-5.99680018E+00	 1.76224515E+02	-6.00154087E+00	-5.09603229E+00	 0.00000000E+00	 0.00000000E+00	 0.00000000E+00	 0.00000000E+00
2.58941894E+07	-5.99956422E+00	 1.76172434E+02	-5.99957477E+00	-5.15236327E+00	 0.00000000E+00	 0.00000000E+00	 0.00000000E+00	 0.00000000E+00
2.61941194E+07	-6.00318273E+00	 1.76133625E+02	-6.00261380E+00	-5.19329735E+00	 0.00000000E+00	 0.00000000E+00	 0.00000000E+00	 0.00000000E+00
2.64940494E+07	-6.00420002E+00	 1.76105061E+02	-6.00593061E+00	-5.23483131E+00	 0.00000000E+00	 0.00000000E+00	 0.00000000E+00	 0.00000000E+00
2.67939794E+07	-6.00789991E+00	 1.76086194E+02	-6.00860260E+00	-5.28604755E+00	 0.00000000E+00	 0.00000000E+00	 0.00000000E+00	 0.00000000E+00
2.70939094E+07	-6.00776398E+00	 1.76042638E+02	-6.00811701E+00	-5.33653484E+00	 0.00000000E+00	 0.00000000E+00	 0.00000000E+00	 0.00000000E+00
2.73938394E+07	-6.00662883E+00	 1.76007076E+02	-6.00618483E+00	-5.39440679E+00	 0.00000000E+00	 0.00000000E+00	 0.00000000E+00	 0.00000000E+00
2.76937694E+07	-6.01370369E+00	 1.75976708E+02	-6.01743253E+00	-5.44984690E+00	 0.00000000E+00	 0.00000000E+00	 0.00000000E+00	 0.00000000E+00
2.79936994E+07	-6.00944003E+00	 1.75937715E+02	-6.01135016E+00	-5.48963212E+00	 0.00000000E+00	 0.00000000E+00	 0.00000000E+00	 0.00000000E+00
2.82936294E+07	-6.01201611E+00	 1.75879270E+02	-6.01432289E+00	-5.55325460E+00	 0.00000000E+00	 0.00000000E+00	 0.00000000E+00	 0.00000000E+00
2.85935594E+07	-6.01860880E+00	 1.75855496E+02	-6.01588080E+00	-5.62386141E+00	 0.00000000E+00	 0.00000000E+00	 0.00000000E+00	 0.00000000E+00
2.88934893E+07	-6.01845799E+00	 1.75828449E+02	-6.01711703E+00	-5.64852987E+00	 0.00000000E+00	 0.00000000E+00	 0.00000000E+00	 0.00000000E+00
2.91934193E+07	-6.02000977E+00	 1.75787653E+02	-6.01900557E+00	-5.71741263E+00	 0.00000000E+00	 0.00000000E+00	 0.00000000E+00	 0.00000000E+00
2.94933493E+07	-6.02275144E+00	 1.75746657E+02	-6.01988767E+00	-5.73152442E+00	 0.00000000E+00	 0.00000000E+00	 0.00000000E+00	 0.00000000E+00
2.97932793E+07	-6.02364919E+00	 1.75705014E+02	-6.01991851E+00	-5.79340584E+00	 0.00000000E+00	 0.00000000E+00	 0.00000000E+00	 0.00000000E+00
3.00932093E+07	-6.02387823E+00	 1.75683326E+02	-6.02069135E+00	-5.83463451E+00	 0.00000000E+00	 0.00000000E+00	 0.00000000E+00	 0.00000000E+00
3.03931393E+07	-6.02622581E+00	 1.75635735E+02	-6.02424451E+00	-5.91007687E+00	 0.00000000E+00	 0.00000000E+00	 0.00000000E+00	 0.00000000E+00
3.06930693E+07	-6.02997875E+00	 1.75633221E+02	-6.02577691E+00	-5.94630939E+00	 0.00000000E+00	 0.00000000E+00	 0.00000000E+00	 0.00000000E+00
3.09929993E+07	-6.03107946E+00	 1.75575456E+02	-6.02758992E+00	-6.00687235E+00	 0.00000000E+00	 0.00000000E+00	 0.00000000E+00	 0.00000000E+00
3.12929293E+07	-6.03248082E+00	 1.75559049E+02	-6.02989528E+00	-6.03741097E+00	 0.00000000E+00	 0.00000000E+00	 0.00000000E+00	 0.00000000E+00
3.15928593E+07	-6.03198851E+00	 1.75528887E+02	-6.03154293E+00	-6.05546873E+00	 0.00000000E+00	 0.00000000E+00	 0.00000000E+00	 0.00000000E+00
3.18927893E+07	-6.03539476E+00	 1.75463178E+02	-6.03611110E+00	-6.12878788E+00	 0.00000000E+00	 0.00000000E+00	 0.00000000E+00	 0.00000000E+00
3.21927193E+07	-6.03965066E+00	 1.75437007E+02	-6.03537139E+00	-6.20356255E+00	 0.00000000E+00	 0.00000000E+00	 0.00000000E+00	 0.00000000E+00
3.24926493E+07	-6.03928324E+00	 1.75415705E+02	-6.03290668E+00	-6.24235444E+00	 0.00000000E+00	 0.00000000E+00	 0.00000000E+00	 0.00000000E+00
3.27925793E+07	-6.03819687E+00	 1.75384537E+02	-6.03924270E+00	-6.29921161E+00	 0.00000000E+00	 0.00000000E+00	 0.00000000E+00	 0.00000000E+00
3.30925093E+07	-6.04291902E+00	 1.75354766E+02	-6.03595296E+00	-6.33308874E+00	 0.00000000E+00	 0.00000000E+00	 0.00000000E+00	 0.00000000E+00
3.33924392E+07	-6.04599362E+00	 1.75300053E+02	-6.04322530E+00	-6.38590271E+00	 0.00000000E+00	 0.00000000E+00	 0.00000000E+00	 0.00000000E+00
3.36923692E+07	-6.04810585E+00	 1.75278238E+02	-6.04528920E+00	-6.43112481E+00	 0.00000000E+00	 0.00000000E+00	 0.00000000E+00	 0.00000000E+00
3.39922992E+07	-6.04854512E+00	 1.75238072E+02	-6.04104433E+00	-6.45531882E+00	 0.00000000E+00	 0.00000000E+00	 0.00000000E+00	 0.00000000E+00
3.42922292E+07	-6.04762731E+00	 1.75213553E+02	-6.04514590E+00	-6.50652931E+00	 0.00000000E+00	 0.00000000E+00	 0.00000000E+00	 0.00000000E+00
3.45921592E+07	-6.05116057E+00	 1.75151081E+02	-6.04456518E+00	-6.58969296E+00	 0.00000000E+00	 0.00000000E+00	 0.00000000E+00	 0.00000000E+00
3.48920892E+07	-6.05315125E+00	 1.75153018E+02	-6.04414888E+00	-6.60819022E+00	 0.00000000E+00	 0.00000000E+00	 0.00000000E+00	 0.00000000E+00
3.51920192E+07	-6.05726761E+00	 1.75103830E+02	-6.05165264E+00	-6.67441633E+00	 0.00000000E+00	 0.00000000E+00	 0.00000000E+00	 0.00000000E+00
3.54919492E+07	-6.05695162E+00	 1.75094535E+02	-6.05242972E+00	-6.72118703E+00	 0.00000000E+00	 0.00000000E+00	 0.00000000E+00	 0.00000000E+00
3.57918792E+07	-6.06125069E+00	 1.75063647E+02	-6.05261987E+00	-6.76395052E+00	 0.00000000E+00	 0.00000000E+00	 0.00000000E+00	 0.00000000E+00
3.60918092E+07	-6.06096343E+00	 1.75037716E+02	-6.05389211E+00	-6.81992164E+00	 0.00000000E+00	 0.00000000E+00	 0.00000000E+00	 0.00000000E+00
3.63917392E+07	-6.06009523E+00	 1.74976847E+02	-6.05491391E+00	-6.85660218E+00	 0.00000000E+00	 0.00000000E+00	 0.00000000E+00	 0.00000000E+00
3.66916692E+07	-6.06588045E+00	 1.74983391E+02	-6.05559549E+00	-6.88478720E+00	 0.00000000E+00	 0.00000000E+00	 0.00000000E+00	 0.00000000E+00
3.69915992E+07	-6.06909503E+00	 1.74942147E+02	-6.06098013E+00	-6.93934705E+00	 0.00000000E+00	 0.00000000E+00	 0.00000000E+00	 0.00000000E+00
3.72915292E+07	-6.06147758E+00	 1.74925428E+02	-6.05932004E+00	-6.98484523E+00	 0.00000000E+00	 0.00000000E+00	 0.00000000E+00	 0.00000000E+00
3.75914591E+07	-6.06753901E+00	 1.74891723E+02	-6.05931148E+00	-7.00310866E+00	 0.00000000E+00	 0.00000000E+00	 0.00000000E+00	 0.00000000E+00
3.78913891E+07	-6.07169172E+00	 1.74862893E+02	-6.05960148E+00	-7.06058276E+00	 0.00000000E+00	 0.00000000E+00	 0.00000000E+00	 0.00000000E+00
3.81913191E+07	-6.07372266E+00	 1.74823847E+02	-6.05877421E+00	-7.10278858E+00	 0.00000000E+00	 0.00000000E+00	 0.00000000E+00	 0.00000000E+00
3.84912491E+07	-6.07634169E+00	 1.74784514E+02	-6.06533873E+00	-7.18721501E+00	 0.00000000E+00	 0.00000000E+00	 0.00000000E+00	 0.00000000E+00
3.87911791E+07	-6.07485348E+00	 1.74745148E+02	-6.05989970E+00	-7.23767873E+00	 0.00000000E+00	 0.00000000E+00	 0.00000000E+00	 0.00000000E+00
3.90911091E+07	-6.07706865E+00	 1.74730419E+02	-6.06316966E+00	-7.26043727E+00	 0.00000000E+00	 0.00000000E+00	 0.00000000E+00	 0.00000000E+00
3.93910391E+07	-6.07928340E+00	 1.74707893E+02	-6.06478948E+00	-7.29774300E+00	 0.00000000E+00	 0.00000000E+00	 0.00000000E+00	 0.00000000E+00
3.96909691E+07	-6.08206850E+00	 1.74633626E+02	-6.06826579E+00	-7.37226554E+00	 0.00000000E+00	 0.00000000E+00	 0.00000000E+00	 0.00000000E+00
3.99908991E+07	-6.08398963E+00	 1.74644350E+02	-6.06945503E+00	-7.38499699E+00	 0.00000000E+00	 0.00000000E+00	 0.00000000E+00	 0.00000000E+00
4.02908291E+07	-6.08520436E+00	 1.74602305E+02	-6.07003661E+00	-7.45823543E+00	 0.00000000E+00	 0.00000000E+00	 0.00000000E+00	 0.00000000E+00
4.05907591E+07	-6.08661556E+00	 1.74552061E+02	-6.07115520E+00	-7.50990667E+00	 0.00000000E+00	 0.00000000E+00	 0.00000000E+00	 0.00000000E+00
4.08906891E+07	-6.08525617E+00	 1.74522572E+02	-6.07117697E+00	-7.53208732E+00	 0.00000000E+00	 0.00000000E+00	 0.00000000E+00	 0.00000000E+00
4.11906191E+07	-6.08979248E+00	 1.74510751E+02	-6.07307471E+00	-7.56897043E+00	 0.00000000E+00	 0.00000000E+00	 0.00000000E+00	 0.00000000E+00
4.14905491E+07	-6.09303568E+00	 1.74471374E+02	-6.07095763E+00	-7.64542360E+00	 0.00000000E+00	 0.00000000E+00	 0.00000000E+00	 0.00000000E+00
