! COPPER MOUNTAIN TECHNOLOGIES, TR5048, 17097159, 18.1.2/2.0
! Date: 05/03/2018 15:09:10
! Data: Format [Calibration Info]
! Freq          	S11: Re/Im OP                  	S21: Re/Im OP                  	S12: Re/Im                     	S22: Re/Im                     
# HZ S RI R 50
1.00000000E+06	-5.08525706E-01	 2.18168150E-03	 5.07597689E-01	-2.21782183E-03	 0.00000000E+00	 0.00000000E+00	 0.00000000E+00	 0.00000000E+00
1.29992999E+06	-5.08441292E-01	 2.87387720E-03	 5.07509555E-01	-3.02033552E-03	 0.00000000E+00	 0.00000000E+00	 0.00000000E+00	 0.00000000E+00
1.59985999E+06	-5.08254316E-01	 3.45033852E-03	 5.07317482E-01	-3.55504251E-03	 0.00000000E+00	 0.00000000E+00	 0.00000000E+00	 0.00000000E+00
1.89978998E+06	-5.08188471E-01	 3.84352038E-03	 5.07352833E-01	-4.23786656E-03	 0.00000000E+00	 0.00000000E+00	 0.00000000E+00	 0.00000000E+00
2.19971997E+06	-5.08084927E-01	 4.32071965E-03	 5.07243601E-01	-4.86940042E-03	 0.00000000E+00	 0.00000000E+00	 0.00000000E+00	 0.00000000E+00
2.49964996E+06	-5.08003682E-01	 4.83457197E-03	 5.07131568E-01	-5.46788877E-03	 0.00000000E+00	 0.00000000E+00	 0.00000000E+00	 0.00000000E+00
2.79957996E+06	-5.07958669E-01	 5.31315889E-03	 5.07120311E-01	-5.97172436E-03	 0.00000000E+00	 0.00000000E+00	 0.00000000E+00	 0.00000000E+00
3.09950995E+06	-5.07937376E-01	 5.69672324E-03	 5.07058871E-01	-6.54308870E-03	 0.00000000E+00	 0.00000000E+00	 0.00000000E+00	 0.00000000E+00
3.39943994E+06	-5.07758296E-01	 6.05753101E-03	 5.06854510E-01	-7.05657651E-03	 0.00000000E+00	 0.00000000E+00	 0.00000000E+00	 0.00000000E+00
3.69936994E+06	-5.07746334E-01	 6.56687832E-03	 5.06857167E-01	-7.74385982E-03	 0.00000000E+00	 0.00000000E+00	 0.00000000E+00	 0.00000000E+00
3.99929993E+06	-5.07613549E-01	 7.02923915E-03	 5.06889096E-01	-8.23707510E-03	 0.00000000E+00	 0.00000000E+00	 0.00000000E+00	 0.00000000E+00
4.29922992E+06	-5.07553130E-01	 7.36127359E-03	 5.06762402E-01	-8.76765706E-03	 0.00000000E+00	 0.00000000E+00	 0.00000000E+00	 0.00000000E+00
4.59915992E+06	-5.07444052E-01	 7.92034875E-03	 5.06701313E-01	-9.31126096E-03	 0.00000000E+00	 0.00000000E+00	 0.00000000E+00	 0.00000000E+00
4.89908991E+06	-5.07410491E-01	 8.20836683E-03	 5.06605135E-01	-9.93719577E-03	 0.00000000E+00	 0.00000000E+00	 0.00000000E+00	 0.00000000E+00
5.19901990E+06	-5.07287725E-01	 8.56956629E-03	 5.06526145E-01	-1.03978070E-02	 0.00000000E+00	 0.00000000E+00	 0.00000000E+00	 0.00000000E+00
5.49894989E+06	-5.07256158E-01	 9.04447275E-03	 5.06479297E-01	-1.10979773E-02	 0.00000000E+00	 0.00000000E+00	 0.00000000E+00	 0.00000000E+00
5.79887989E+06	-5.07096569E-01	 9.43303054E-03	 5.06374598E-01	-1.17978556E-02	 0.00000000E+00	 0.00000000E+00	 0.00000000E+00	 0.00000000E+00
6.09880988E+06	-5.07100417E-01	 9.88508299E-03	 5.06301556E-01	-1.21765423E-02	 0.00000000E+00	 0.00000000E+00	 0.00000000E+00	 0.00000000E+00
6.39873987E+06	-5.07021397E-01	 1.02878625E-02	 5.06256594E-01	-1.27013569E-02	 0.00000000E+00	 0.00000000E+00	 0.00000000E+00	 0.00000000E+00
6.69866987E+06	-5.06911095E-01	 1.05727035E-02	 5.06202331E-01	-1.31192457E-02	 0.00000000E+00	 0.00000000E+00	 0.00000000E+00	 0.00000000E+00
6.99859986E+06	-5.06831512E-01	 1.11747529E-02	 5.06108774E-01	-1.38288099E-02	 0.00000000E+00	 0.00000000E+00	 0.00000000E+00	 0.00000000E+00
7.29852985E+06	-5.06781952E-01	 1.14531136E-02	 5.05950637E-01	-1.42447857E-02	 0.00000000E+00	 0.00000000E+00	 0.00000000E+00	 0.00000000E+00
7.59845985E+06	-5.06673870E-01	 1.19099032E-02	 5.05936063E-01	-1.47824304E-02	 0.00000000E+00	 0.00000000E+00	 0.00000000E+00	 0.00000000E+00
7.89838984E+06	-5.06781726E-01	 1.22103640E-02	 5.05974855E-01	-1.52941332E-02	 0.00000000E+00	 0.00000000E+00	 0.00000000E+00	 0.00000000E+00
8.19831983E+06	-5.06529970E-01	 1.26696674E-02	 5.05737194E-01	-1.57854860E-02	 0.00000000E+00	 0.00000000E+00	 0.00000000E+00	 0.00000000E+00
8.49824982E+06	-5.06447717E-01	 1.31005547E-02	 5.05679170E-01	-1.63693306E-02	 0.00000000E+00	 0.00000000E+00	 0.00000000E+00	 0.00000000E+00
8.79817982E+06	-5.06255150E-01	 1.33569763E-02	 5.05638237E-01	-1.70254337E-02	 0.00000000E+00	 0.00000000E+00	 0.00000000E+00	 0.00000000E+00
9.09810981E+06	-5.06085494E-01	 1.37300190E-02	 5.05431841E-01	-1.74415895E-02	 0.00000000E+00	 0.00000000E+00	 0.00000000E+00	 0.00000000E+00
9.39803980E+06	-5.06214468E-01	 1.43615516E-02	 5.05552402E-01	-1.81724366E-02	 0.00000000E+00	 0.00000000E+00	 0.00000000E+00	 0.00000000E+00
9.69796980E+06	-5.06150552E-01	 1.47640944E-02	 5.05420713E-01	-1.85585116E-02	 0.00000000E+00	 0.00000000E+00	 0.00000000E+00	 0.00000000E+00
9.99789979E+06	-5.05929755E-01	 1.49915134E-02	 5.05206821E-01	-1.91321251E-02	 0.00000000E+00	 0.00000000E+00	 0.00000000E+00	 0.00000000E+00
1.02978298E+07	-5.05847808E-01	 1.53836114E-02	 5.05216492E-01	-1.95587763E-02	 0.00000000E+00	 0.00000000E+00	 0.00000000E+00	 0.00000000E+00
1.05977598E+07	-5.05957049E-01	 1.56875484E-02	 5.05152222E-01	-2.00470037E-02	 0.00000000E+00	 0.00000000E+00	 0.00000000E+00	 0.00000000E+00
1.08976898E+07	-5.05623573E-01	 1.62731333E-02	 5.04918791E-01	-2.05932288E-02	 0.00000000E+00	 0.00000000E+00	 0.00000000E+00	 0.00000000E+00
1.11976198E+07	-5.05704211E-01	 1.65923658E-02	 5.04939123E-01	-2.13127008E-02	 0.00000000E+00	 0.00000000E+00	 0.00000000E+00	 0.00000000E+00
1.14975498E+07	-5.05613065E-01	 1.68035191E-02	 5.04825307E-01	-2.16645181E-02	 0.00000000E+00	 0.00000000E+00	 0.00000000E+00	 0.00000000E+00
1.17974797E+07	-5.05312258E-01	 1.73333198E-02	 5.04698722E-01	-2.22175269E-02	 0.00000000E+00	 0.00000000E+00	 0.00000000E+00	 0.00000000E+00
1.20974097E+07	-5.05530015E-01	 1.77634331E-02	 5.04629301E-01	-2.27533437E-02	 0.00000000E+00	 0.00000000E+00	 0.00000000E+00	 0.00000000E+00
1.23973397E+07	-5.05265578E-01	 1.80014141E-02	 5.04584714E-01	-2.34044249E-02	 0.00000000E+00	 0.00000000E+00	 0.00000000E+00	 0.00000000E+00
1.26972697E+07	-5.05096817E-01	 1.85064269E-02	 5.04385908E-01	-2.38596314E-02	 0.00000000E+00	 0.00000000E+00	 0.00000000E+00	 0.00000000E+00
1.29971997E+07	-5.04978826E-01	 1.86549624E-02	 5.04277034E-01	-2.43068168E-02	 0.00000000E+00	 0.00000000E+00	 0.00000000E+00	 0.00000000E+00
1.32971297E+07	-5.04846154E-01	 1.92071268E-02	 5.04166791E-01	-2.47527640E-02	 0.00000000E+00	 0.00000000E+00	 0.00000000E+00	 0.00000000E+00
1.35970597E+07	-5.04767031E-01	 1.95360691E-02	 5.04031152E-01	-2.53984237E-02	 0.00000000E+00	 0.00000000E+00	 0.00000000E+00	 0.00000000E+00
1.38969897E+07	-5.04640187E-01	 1.99164830E-02	 5.03849883E-01	-2.58863880E-02	 0.00000000E+00	 0.00000000E+00	 0.00000000E+00	 0.00000000E+00
1.41969197E+07	-5.04728984E-01	 2.03516766E-02	 5.03769831E-01	-2.63320582E-02	 0.00000000E+00	 0.00000000E+00	 0.00000000E+00	 0.00000000E+00
1.44968497E+07	-5.04507447E-01	 2.04476898E-02	 5.03816336E-01	-2.67040671E-02	 0.00000000E+00	 0.00000000E+00	 0.00000000E+00	 0.00000000E+00
1.47967797E+07	-5.04386270E-01	 2.10212572E-02	 5.03606807E-01	-2.74246915E-02	 0.00000000E+00	 0.00000000E+00	 0.00000000E+00	 0.00000000E+00
1.50967097E+07	-5.04421744E-01	 2.14700505E-02	 5.03595337E-01	-2.79702072E-02	 0.00000000E+00	 0.00000000E+00	 0.00000000E+00	 0.00000000E+00
1.53966397E+07	-5.04091714E-01	 2.15375386E-02	 5.03338366E-01	-2.81877910E-02	 0.00000000E+00	 0.00000000E+00	 0.00000000E+00	 0.00000000E+00
1.56965697E+07	-5.03950715E-01	 2.20683700E-02	 5.03261004E-01	-2.88886943E-02	 0.00000000E+00	 0.00000000E+00	 0.00000000E+00	 0.00000000E+00
1.59964996E+07	-5.04120288E-01	 2.24800902E-02	 5.03339527E-01	-2.93540065E-02	 0.00000000E+00	 0.00000000E+00	 0.00000000E+00	 0.00000000E+00
1.62964296E+07	-5.03853149E-01	 2.28038902E-02	 5.03048737E-01	-2.98194365E-02	 0.00000000E+00	 0.00000000E+00	 0.00000000E+00	 0.00000000E+00
1.65963596E+07	-5.03663248E-01	 2.31871737E-02	 5.03087412E-01	-3.03635630E-02	 0.00000000E+00	 0.00000000E+00	 0.00000000E+00	 0.00000000E+00
1.68962896E+07	-5.03693736E-01	 2.34412754E-02	 5.02948395E-01	-3.07928356E-02	 0.00000000E+00	 0.00000000E+00	 0.00000000E+00	 0.00000000E+00
1.71962196E+07	-5.03645875E-01	 2.39409250E-02	 5.02845014E-01	-3.13935896E-02	 0.00000000E+00	 0.00000000E+00	 0.00000000E+00	 0.00000000E+00
1.74961496E+07	-5.03495328E-01	 2.41533168E-02	 5.02814296E-01	-3.17694445E-02	 0.00000000E+00	 0.00000000E+00	 0.00000000E+00	 0.00000000E+00
1.77960796E+07	-5.03402007E-01	 2.45454236E-02	 5.02558864E-01	-3.22176508E-02	 0.00000000E+00	 0.00000000E+00	 0.00000000E+00	 0.00000000E+00
1.80960096E+07	-5.03050072E-01	 2.49663120E-02	 5.02316676E-01	-3.27366547E-02	 0.00000000E+00	 0.00000000E+00	 0.00000000E+00	 0.00000000E+00
1.83959396E+07	-5.03067124E-01	 2.52268719E-02	 5.02334737E-01	-3.32122359E-02	 0.00000000E+00	 0.00000000E+00	 0.00000000E+00	 0.00000000E+00
1.86958696E+07	-5.02954090E-01	 2.56275145E-02	 5.02205783E-01	-3.37598881E-02	 0.00000000E+00	 0.00000000E+00	 0.00000000E+00	 0.00000000E+00
1.89957996E+07	-5.03016081E-01	 2.60020898E-02	 5.02114123E-01	-3.40777976E-02	 0.00000000E+00	 0.00000000E+00	 0.00000000E+00	 0.00000000E+00
1.92957296E+07	-5.02684922E-01	 2.62074728E-02	 5.01897126E-01	-3.45917406E-02	 0.00000000E+00	 0.00000000E+00	 0.00000000E+00	 0.00000000E+00
1.95956596E+07	-5.02567966E-01	 2.65067008E-02	 5.01800144E-01	-3.51997639E-02	 0.00000000E+00	 0.00000000E+00	 0.00000000E+00	 0.00000000E+00
1.98955896E+07	-5.02687987E-01	 2.70910673E-02	 5.01732542E-01	-3.56856230E-02	 0.00000000E+00	 0.00000000E+00	 0.00000000E+00	 0.00000000E+00
2.01955196E+07	-5.02473413E-01	 2.72645272E-02	 5.01611052E-01	-3.61182186E-02	 0.00000000E+00	 0.00000000E+00	 0.00000000E+00	 0.00000000E+00
2.04954495E+07	-5.02448039E-01	 2.76867108E-02	 5.01570971E-01	-3.66978330E-02	 0.00000000E+00	 0.00000000E+00	 0.00000000E+00	 0.00000000E+00
2.07953795E+07	-5.02175450E-01	 2.79632696E-02	 5.01385508E-01	-3.69459834E-02	 0.00000000E+00	 0.00000000E+00	 0.00000000E+00	 0.00000000E+00
2.10953095E+07	-5.02045441E-01	 2.83784747E-02	 5.01305004E-01	-3.75063679E-02	 0.00000000E+00	 0.00000000E+00	 0.00000000E+00	 0.00000000E+00
2.13952395E+07	-5.02096322E-01	 2.87145871E-02	 5.01237820E-01	-3.80382286E-02	 0.00000000E+00	 0.00000000E+00	 0.00000000E+00	 0.00000000E+00
2.16951695E+07	-5.01671418E-01	 2.90073143E-02	 5.00632997E-01	-3.85369814E-02	 0.00000000E+00	 0.00000000E+00	 0.00000000E+00	 0.00000000E+00
2.19950995E+07	-5.01672286E-01	 2.93039848E-02	 5.00806303E-01	-3.90391183E-02	 0.00000000E+00	 0.00000000E+00	 0.00000000E+00	 0.00000000E+00
2.22950295E+07	-5.01613238E-01	 2.95745482E-02	 5.00694941E-01	-3.94057017E-02	 0.00000000E+00	 0.00000000E+00	 0.00000000E+00	 0.00000000E+00
2.25949595E+07	-5.01327264E-01	 2.99993261E-02	 5.00550827E-01	-4.00827936E-02	 0.00000000E+00	 0.00000000E+00	 0.00000000E+00	 0.00000000E+00
2.28948895E+07	-5.01342802E-01	 3.02076565E-02	 5.00346274E-01	-4.03418941E-02	 0.00000000E+00	 0.00000000E+00	 0.00000000E+00	 0.00000000E+00
2.31948195E+07	-5.01194755E-01	 3.03581883E-02	 5.00191521E-01	-4.07661971E-02	 0.00000000E+00	 0.00000000E+00	 0.00000000E+00	 0.00000000E+00
2.34947495E+07	-5.00980723E-01	 3.07785567E-02	 5.00220634E-01	-4.11806266E-02	 0.00000000E+00	 0.00000000E+00	 0.00000000E+00	 0.00000000E+00
2.37946795E+07	-5.00948846E-01	 3.12290818E-02	 4.99953194E-01	-4.18108672E-02	 0.00000000E+00	 0.00000000E+00	 0.00000000E+00	 0.00000000E+00
2.40946095E+07	-5.00678856E-01	 3.16367371E-02	 4.99774988E-01	-4.22078013E-02	 0.00000000E+00	 0.00000000E+00	 0.00000000E+00	 0.00000000E+00
2.43945395E+07	-5.00800646E-01	 3.17722996E-02	 4.99704874E-01	-4.24528937E-02	 0.00000000E+00	 0.00000000E+00	 0.00000000E+00	 0.00000000E+00
2.46944694E+07	-5.00613778E-01	 3.21389000E-02	 4.99741959E-01	-4.29859594E-02	 0.00000000E+00	 0.00000000E+00	 0.00000000E+00	 0.00000000E+00
2.49943994E+07	-5.00502646E-01	 3.23578390E-02	 4.99382632E-01	-4.35103012E-02	 0.00000000E+00	 0.00000000E+00	 0.00000000E+00	 0.00000000E+00
2.52943294E+07	-5.00218346E-01	 3.27352632E-02	 4.99277701E-01	-4.39626233E-02	 0.00000000E+00	 0.00000000E+00	 0.00000000E+00	 0.00000000E+00
2.55942594E+07	-5.00172280E-01	 3.30656379E-02	 4.99118555E-01	-4.44058795E-02	 0.00000000E+00	 0.00000000E+00	 0.00000000E+00	 0.00000000E+00
2.58941894E+07	-5.00051697E-01	 3.33193352E-02	 4.99199410E-01	-4.47963653E-02	 0.00000000E+00	 0.00000000E+00	 0.00000000E+00	 0.00000000E+00
2.61941194E+07	-5.00052642E-01	 3.35897114E-02	 4.99129126E-01	-4.51867908E-02	 0.00000000E+00	 0.00000000E+00	 0.00000000E+00	 0.00000000E+00
2.64940494E+07	-5.00006554E-01	 3.40449892E-02	 4.98963362E-01	-4.56495024E-02	 0.00000000E+00	 0.00000000E+00	 0.00000000E+00	 0.00000000E+00
2.67939794E+07	-4.99751896E-01	 3.44204923E-02	 4.98688287E-01	-4.62445573E-02	 0.00000000E+00	 0.00000000E+00	 0.00000000E+00	 0.00000000E+00
2.70939094E+07	-4.99690036E-01	 3.45964946E-02	 4.98611036E-01	-4.65270833E-02	 0.00000000E+00	 0.00000000E+00	 0.00000000E+00	 0.00000000E+00
2.73938394E+07	-4.99281302E-01	 3.48216249E-02	 4.98306685E-01	-4.69804513E-02	 0.00000000E+00	 0.00000000E+00	 0.00000000E+00	 0.00000000E+00
2.76937694E+07	-4.99398950E-01	 3.50378578E-02	 4.98225715E-01	-4.74180230E-02	 0.00000000E+00	 0.00000000E+00	 0.00000000E+00	 0.00000000E+00
2.79936994E+07	-4.99360593E-01	 3.55053095E-02	 4.98239732E-01	-4.78651223E-02	 0.00000000E+00	 0.00000000E+00	 0.00000000E+00	 0.00000000E+00
2.82936294E+07	-4.99316185E-01	 3.57912327E-02	 4.97970775E-01	-4.82034512E-02	 0.00000000E+00	 0.00000000E+00	 0.00000000E+00	 0.00000000E+00
2.85935594E+07	-4.98855170E-01	 3.59797047E-02	 4.97871668E-01	-4.88671837E-02	 0.00000000E+00	 0.00000000E+00	 0.00000000E+00	 0.00000000E+00
2.88934893E+07	-4.98961777E-01	 3.62930469E-02	 4.97949791E-01	-4.91570490E-02	 0.00000000E+00	 0.00000000E+00	 0.00000000E+00	 0.00000000E+00
2.91934193E+07	-4.98475607E-01	 3.67637190E-02	 4.97392544E-01	-4.97775495E-02	 0.00000000E+00	 0.00000000E+00	 0.00000000E+00	 0.00000000E+00
2.94933493E+07	-4.98552438E-01	 3.72430087E-02	 4.97566197E-01	-5.00869802E-02	 0.00000000E+00	 0.00000000E+00	 0.00000000E+00	 0.00000000E+00
2.97932793E+07	-4.98435839E-01	 3.74077959E-02	 4.97515013E-01	-5.05460802E-02	 0.00000000E+00	 0.00000000E+00	 0.00000000E+00	 0.00000000E+00
3.00932093E+07	-4.98357082E-01	 3.75899089E-02	 4.97392004E-01	-5.07357934E-02	 0.00000000E+00	 0.00000000E+00	 0.00000000E+00	 0.00000000E+00
3.03931393E+07	-4.98052602E-01	 3.78797286E-02	 4.97015880E-01	-5.13786924E-02	 0.00000000E+00	 0.00000000E+00	 0.00000000E+00	 0.00000000E+00
3.06930693E+07	-4.98153879E-01	 3.79069935E-02	 4.97081596E-01	-5.15731771E-02	 0.00000000E+00	 0.00000000E+00	 0.00000000E+00	 0.00000000E+00
3.09929993E+07	-4.97870497E-01	 3.84361379E-02	 4.96765929E-01	-5.21929429E-02	 0.00000000E+00	 0.00000000E+00	 0.00000000E+00	 0.00000000E+00
3.12929293E+07	-4.97884894E-01	 3.86580128E-02	 4.96679200E-01	-5.24114038E-02	 0.00000000E+00	 0.00000000E+00	 0.00000000E+00	 0.00000000E+00
3.15928593E+07	-4.97718729E-01	 3.89658031E-02	 4.96480184E-01	-5.27701875E-02	 0.00000000E+00	 0.00000000E+00	 0.00000000E+00	 0.00000000E+00
3.18927893E+07	-4.97576569E-01	 3.93679558E-02	 4.96273174E-01	-5.32209130E-02	 0.00000000E+00	 0.00000000E+00	 0.00000000E+00	 0.00000000E+00
3.21927193E+07	-4.97467508E-01	 3.96099739E-02	 4.96276496E-01	-5.39008737E-02	 0.00000000E+00	 0.00000000E+00	 0.00000000E+00	 0.00000000E+00
3.24926493E+07	-4.97310662E-01	 3.97851242E-02	 4.96382685E-01	-5.42243218E-02	 0.00000000E+00	 0.00000000E+00	 0.00000000E+00	 0.00000000E+00
3.27925793E+07	-4.97310577E-01	 4.02197296E-02	 4.95866848E-01	-5.47545418E-02	 0.00000000E+00	 0.00000000E+00	 0.00000000E+00	 0.00000000E+00
3.30925093E+07	-4.97015207E-01	 4.02702778E-02	 4.95933247E-01	-5.48373749E-02	 0.00000000E+00	 0.00000000E+00	 0.00000000E+00	 0.00000000E+00
3.33924392E+07	-4.97061975E-01	 4.06971232E-02	 4.95723881E-01	-5.53600812E-02	 0.00000000E+00	 0.00000000E+00	 0.00000000E+00	 0.00000000E+00
3.36923692E+07	-4.96665948E-01	 4.10165218E-02	 4.95321596E-01	-5.58351492E-02	 0.00000000E+00	 0.00000000E+00	 0.00000000E+00	 0.00000000E+00
3.39922992E+07	-4.96781629E-01	 4.11033381E-02	 4.95786543E-01	-5.59883274E-02	 0.00000000E+00	 0.00000000E+00	 0.00000000E+00	 0.00000000E+00
3.42922292E+07	-4.96738688E-01	 4.17421774E-02	 4.95341912E-01	-5.66514213E-02	 0.00000000E+00	 0.00000000E+00	 0.00000000E+00	 0.00000000E+00
3.45921592E+07	-4.96297366E-01	 4.20801398E-02	 4.95273765E-01	-5.70268464E-02	 0.00000000E+00	 0.00000000E+00	 0.00000000E+00	 0.00000000E+00
3.48920892E+07	-4.96336369E-01	 4.21659359E-02	 4.95350700E-01	-5.74673883E-02	 0.00000000E+00	 0.00000000E+00	 0.00000000E+00	 0.00000000E+00
3.51920192E+07	-4.96264988E-01	 4.23894201E-02	 4.94946552E-01	-5.79189059E-02	 0.00000000E+00	 0.00000000E+00	 0.00000000E+00	 0.00000000E+00
3.54919492E+07	-4.96193642E-01	 4.25518718E-02	 4.94826673E-01	-5.82640852E-02	 0.00000000E+00	 0.00000000E+00	 0.00000000E+00	 0.00000000E+00
3.57918792E+07	-4.95987045E-01	 4.28964896E-02	 4.94731716E-01	-5.87318340E-02	 0.00000000E+00	 0.00000000E+00	 0.00000000E+00	 0.00000000E+00
3.60918092E+07	-4.95745138E-01	 4.29875442E-02	 4.94559950E-01	-5.90491099E-02	 0.00000000E+00	 0.00000000E+00	 0.00000000E+00	 0.00000000E+00
3.63917392E+07	-4.95687834E-01	 4.34121668E-02	 4.94376597E-01	-5.93296467E-02	 0.00000000E+00	 0.00000000E+00	 0.00000000E+00	 0.00000000E+00
3.66916692E+07	-4.95505831E-01	 4.36133159E-02	 4.94301878E-01	-5.97581303E-02	 0.00000000E+00	 0.00000000E+00	 0.00000000E+00	 0.00000000E+00
3.69915992E+07	-4.95396519E-01	 4.39212073E-02	 4.94168876E-01	-6.01712197E-02	 0.00000000E+00	 0.00000000E+00	 0.00000000E+00	 0.00000000E+00
3.72915292E+07	-4.95558309E-01	 4.40596144E-02	 4.94016728E-01	-6.05234741E-02	 0.00000000E+00	 0.00000000E+00	 0.00000000E+00	 0.00000000E+00
3.75914591E+07	-4.95154896E-01	 4.44676942E-02	 4.93926983E-01	-6.08537990E-02	 0.00000000E+00	 0.00000000E+00	 0.00000000E+00	 0.00000000E+00
3.78913891E+07	-4.94867273E-01	 4.44917387E-02	 4.93915889E-01	-6.11751485E-02	 0.00000000E+00	 0.00000000E+00	 0.00000000E+00	 0.00000000E+00
3.81913191E+07	-4.94988958E-01	 4.49797780E-02	 4.93945229E-01	-6.17254310E-02	 0.00000000E+00	 0.00000000E+00	 0.00000000E+00	 0.00000000E+00
3.84912491E+07	-4.94760456E-01	 4.52469326E-02	 4.93589438E-01	-6.22374055E-02	 0.00000000E+00	 0.00000000E+00	 0.00000000E+00	 0.00000000E+00
3.87911791E+07	-4.94476178E-01	 4.54856143E-02	 4.93472923E-01	-6.25880583E-02	 0.00000000E+00	 0.00000000E+00	 0.00000000E+00	 0.00000000E+00
3.90911091E+07	-4.94460298E-01	 4.55798591E-02	 4.93430916E-01	-6.27377972E-02	 0.00000000E+00	 0.00000000E+00	 0.00000000E+00	 0.00000000E+00
3.93910391E+07	-4.94640432E-01	 4.58154986E-02	 4.93476933E-01	-6.32498259E-02	 0.00000000E+00	 0.00000000E+00	 0.00000000E+00	 0.00000000E+00
3.96909691E+07	-4.94313758E-01	 4.63355355E-02	 4.93205889E-01	-6.36157404E-02	 0.00000000E+00	 0.00000000E+00	 0.00000000E+00	 0.00000000E+00
3.99908991E+07	-4.94220848E-01	 4.65222802E-02	 4.93059086E-01	-6.39989748E-02	 0.00000000E+00	 0.00000000E+00	 0.00000000E+00	 0.00000000E+00
4.02908291E+07	-4.94060930E-01	 4.66546505E-02	 4.92882303E-01	-6.44570005E-02	 0.00000000E+00	 0.00000000E+00	 0.00000000E+00	 0.00000000E+00
4.05907591E+07	-4.93995186E-01	 4.71651594E-02	 4.92946345E-01	-6.50401894E-02	 0.00000000E+00	 0.00000000E+00	 0.00000000E+00	 0.00000000E+00
4.08906891E+07	-4.94154236E-01	 4.73842780E-02	 4.92958044E-01	-6.52279835E-02	 0.00000000E+00	 0.00000000E+00	 0.00000000E+00	 0.00000000E+00
4.11906191E+07	-4.93721015E-01	 4.73394108E-02	 4.92542580E-01	-6.52779004E-02	 0.00000000E+00	 0.00000000E+00	 0.00000000E+00	 0.00000000E+00
4.14905491E+07	-4.93457733E-01	 4.77555692E-02	 4.92586818E-01	-6.60911377E-02	 0.00000000E+00	 0.00000000E+00	 0.00000000E+00	 0.00000000E+00
