! COPPER MOUNTAIN TECHNOLOGIES, TR5048, 17097159, 18.1.2/2.0
! Date: 05/03/2018 15:09:31
! Data: Format [Calibration Info]
! Freq          	S11: Mag/Ang OP                	S21: Mag/Ang OP                	S12: Mag/Ang                   	S22: Mag/Ang                   
# HZ S MA R 50
1.00000000E+06	 5.08583992E-01	 1.79753237E+02	 5.07649720E-01	-2.55985954E-01	 0.00000000E+00	 0.00000000E+00	 0.00000000E+00	 0.00000000E+00
1.29992999E+06	 5.08521387E-01	 1.79687631E+02	 5.07541532E-01	-3.33959690E-01	 0.00000000E+00	 0.00000000E+00	 0.00000000E+00	 0.00000000E+00
1.59985999E+06	 5.08299310E-01	 1.79608266E+02	 5.07379920E-01	-4.04620013E-01	 0.00000000E+00	 0.00000000E+00	 0.00000000E+00	 0.00000000E+00
1.89978998E+06	 5.08185253E-01	 1.79563463E+02	 5.07389027E-01	-4.75984845E-01	 0.00000000E+00	 0.00000000E+00	 0.00000000E+00	 0.00000000E+00
2.19971997E+06	 5.08093656E-01	 1.79498217E+02	 5.07242973E-01	-5.51854597E-01	 0.00000000E+00	 0.00000000E+00	 0.00000000E+00	 0.00000000E+00
2.49964996E+06	 5.07954688E-01	 1.79464791E+02	 5.07127813E-01	-6.16065837E-01	 0.00000000E+00	 0.00000000E+00	 0.00000000E+00	 0.00000000E+00
2.79957996E+06	 5.07925754E-01	 1.79401066E+02	 5.07127534E-01	-6.68496483E-01	 0.00000000E+00	 0.00000000E+00	 0.00000000E+00	 0.00000000E+00
3.09950995E+06	 5.07861735E-01	 1.79361440E+02	 5.07077971E-01	-7.46197046E-01	 0.00000000E+00	 0.00000000E+00	 0.00000000E+00	 0.00000000E+00
3.39943994E+06	 5.07790195E-01	 1.79309741E+02	 5.06920400E-01	-8.04903114E-01	 0.00000000E+00	 0.00000000E+00	 0.00000000E+00	 0.00000000E+00
3.69936994E+06	 5.07823313E-01	 1.79263584E+02	 5.06939204E-01	-8.75114580E-01	 0.00000000E+00	 0.00000000E+00	 0.00000000E+00	 0.00000000E+00
3.99929993E+06	 5.07655003E-01	 1.79207396E+02	 5.06926792E-01	-9.40142113E-01	 0.00000000E+00	 0.00000000E+00	 0.00000000E+00	 0.00000000E+00
4.29922992E+06	 5.07621436E-01	 1.79162574E+02	 5.06797529E-01	-1.00187840E+00	 0.00000000E+00	 0.00000000E+00	 0.00000000E+00	 0.00000000E+00
4.59915992E+06	 5.07478656E-01	 1.79119652E+02	 5.06805730E-01	-1.05271720E+00	 0.00000000E+00	 0.00000000E+00	 0.00000000E+00	 0.00000000E+00
4.89908991E+06	 5.07396506E-01	 1.79065436E+02	 5.06663503E-01	-1.11971177E+00	 0.00000000E+00	 0.00000000E+00	 0.00000000E+00	 0.00000000E+00
5.19901990E+06	 5.07454802E-01	 1.79031679E+02	 5.06686266E-01	-1.17927053E+00	 0.00000000E+00	 0.00000000E+00	 0.00000000E+00	 0.00000000E+00
5.49894989E+06	 5.07303372E-01	 1.78984918E+02	 5.06598836E-01	-1.25235066E+00	 0.00000000E+00	 0.00000000E+00	 0.00000000E+00	 0.00000000E+00
5.79887989E+06	 5.07212180E-01	 1.78926975E+02	 5.06500991E-01	-1.33047586E+00	 0.00000000E+00	 0.00000000E+00	 0.00000000E+00	 0.00000000E+00
6.09880988E+06	 5.07250920E-01	 1.78882451E+02	 5.06534800E-01	-1.37107058E+00	 0.00000000E+00	 0.00000000E+00	 0.00000000E+00	 0.00000000E+00
6.39873987E+06	 5.07161661E-01	 1.78844745E+02	 5.06471425E-01	-1.43980451E+00	 0.00000000E+00	 0.00000000E+00	 0.00000000E+00	 0.00000000E+00
6.69866987E+06	 5.07060069E-01	 1.78794893E+02	 5.06430721E-01	-1.49083810E+00	 0.00000000E+00	 0.00000000E+00	 0.00000000E+00	 0.00000000E+00
6.99859986E+06	 5.06931495E-01	 1.78739523E+02	 5.06303714E-01	-1.56166009E+00	 0.00000000E+00	 0.00000000E+00	 0.00000000E+00	 0.00000000E+00
7.29852985E+06	 5.06915011E-01	 1.78706349E+02	 5.06156879E-01	-1.61561353E+00	 0.00000000E+00	 0.00000000E+00	 0.00000000E+00	 0.00000000E+00
7.59845985E+06	 5.06856825E-01	 1.78664879E+02	 5.06134795E-01	-1.66695982E+00	 0.00000000E+00	 0.00000000E+00	 0.00000000E+00	 0.00000000E+00
7.89838984E+06	 5.06840171E-01	 1.78621553E+02	 5.06188526E-01	-1.73002157E+00	 0.00000000E+00	 0.00000000E+00	 0.00000000E+00	 0.00000000E+00
8.19831983E+06	 5.06593679E-01	 1.78560474E+02	 5.06008460E-01	-1.80180760E+00	 0.00000000E+00	 0.00000000E+00	 0.00000000E+00	 0.00000000E+00
8.49824982E+06	 5.06517797E-01	 1.78528347E+02	 5.05946953E-01	-1.85380380E+00	 0.00000000E+00	 0.00000000E+00	 0.00000000E+00	 0.00000000E+00
8.79817982E+06	 5.06521388E-01	 1.78471219E+02	 5.05964519E-01	-1.94372045E+00	 0.00000000E+00	 0.00000000E+00	 0.00000000E+00	 0.00000000E+00
9.09810981E+06	 5.06330903E-01	 1.78435848E+02	 5.05878310E-01	-1.98873840E+00	 0.00000000E+00	 0.00000000E+00	 0.00000000E+00	 0.00000000E+00
9.39803980E+06	 5.06466687E-01	 1.78378333E+02	 5.05813931E-01	-2.05435425E+00	 0.00000000E+00	 0.00000000E+00	 0.00000000E+00	 0.00000000E+00
9.69796980E+06	 5.06376202E-01	 1.78343986E+02	 5.05775501E-01	-2.10786850E+00	 0.00000000E+00	 0.00000000E+00	 0.00000000E+00	 0.00000000E+00
9.99789979E+06	 5.06257564E-01	 1.78300563E+02	 5.05728472E-01	-2.15470791E+00	 0.00000000E+00	 0.00000000E+00	 0.00000000E+00	 0.00000000E+00
1.02978298E+07	 5.06166683E-01	 1.78259292E+02	 5.05688479E-01	-2.21658717E+00	 0.00000000E+00	 0.00000000E+00	 0.00000000E+00	 0.00000000E+00
1.05977598E+07	 5.06232154E-01	 1.78209851E+02	 5.05569126E-01	-2.29176886E+00	 0.00000000E+00	 0.00000000E+00	 0.00000000E+00	 0.00000000E+00
1.08976898E+07	 5.05830302E-01	 1.78151047E+02	 5.05450387E-01	-2.35280581E+00	 0.00000000E+00	 0.00000000E+00	 0.00000000E+00	 0.00000000E+00
1.11976198E+07	 5.05892445E-01	 1.78123666E+02	 5.05302418E-01	-2.41082015E+00	 0.00000000E+00	 0.00000000E+00	 0.00000000E+00	 0.00000000E+00
1.14975498E+07	 5.05738841E-01	 1.78075481E+02	 5.05138712E-01	-2.47354084E+00	 0.00000000E+00	 0.00000000E+00	 0.00000000E+00	 0.00000000E+00
1.17974797E+07	 5.05731816E-01	 1.78037436E+02	 5.05244496E-01	-2.53400644E+00	 0.00000000E+00	 0.00000000E+00	 0.00000000E+00	 0.00000000E+00
1.20974097E+07	 5.05768747E-01	 1.77982186E+02	 5.05050936E-01	-2.57855768E+00	 0.00000000E+00	 0.00000000E+00	 0.00000000E+00	 0.00000000E+00
1.23973397E+07	 5.05567027E-01	 1.77949909E+02	 5.05103325E-01	-2.65130330E+00	 0.00000000E+00	 0.00000000E+00	 0.00000000E+00	 0.00000000E+00
1.26972697E+07	 5.05417254E-01	 1.77907660E+02	 5.05001327E-01	-2.70503596E+00	 0.00000000E+00	 0.00000000E+00	 0.00000000E+00	 0.00000000E+00
1.29971997E+07	 5.05356248E-01	 1.77884652E+02	 5.04804927E-01	-2.76237841E+00	 0.00000000E+00	 0.00000000E+00	 0.00000000E+00	 0.00000000E+00
1.32971297E+07	 5.05264661E-01	 1.77827527E+02	 5.04780503E-01	-2.79379192E+00	 0.00000000E+00	 0.00000000E+00	 0.00000000E+00	 0.00000000E+00
1.35970597E+07	 5.05111782E-01	 1.77766956E+02	 5.04598386E-01	-2.89740675E+00	 0.00000000E+00	 0.00000000E+00	 0.00000000E+00	 0.00000000E+00
1.38969897E+07	 5.05056220E-01	 1.77759054E+02	 5.04625248E-01	-2.92417061E+00	 0.00000000E+00	 0.00000000E+00	 0.00000000E+00	 0.00000000E+00
1.41969197E+07	 5.05066840E-01	 1.77690850E+02	 5.04502786E-01	-2.99241640E+00	 0.00000000E+00	 0.00000000E+00	 0.00000000E+00	 0.00000000E+00
1.44968497E+07	 5.04939883E-01	 1.77659425E+02	 5.04518577E-01	-3.04962052E+00	 0.00000000E+00	 0.00000000E+00	 0.00000000E+00	 0.00000000E+00
1.47967797E+07	 5.04863341E-01	 1.77603124E+02	 5.04357070E-01	-3.11888879E+00	 0.00000000E+00	 0.00000000E+00	 0.00000000E+00	 0.00000000E+00
1.50967097E+07	 5.04775076E-01	 1.77581947E+02	 5.04312406E-01	-3.16364850E+00	 0.00000000E+00	 0.00000000E+00	 0.00000000E+00	 0.00000000E+00
1.53966397E+07	 5.04522946E-01	 1.77547437E+02	 5.04154458E-01	-3.21139719E+00	 0.00000000E+00	 0.00000000E+00	 0.00000000E+00	 0.00000000E+00
1.56965697E+07	 5.04551398E-01	 1.77490252E+02	 5.04077604E-01	-3.28527402E+00	 0.00000000E+00	 0.00000000E+00	 0.00000000E+00	 0.00000000E+00
1.59964996E+07	 5.04531411E-01	 1.77441878E+02	 5.04166869E-01	-3.33297852E+00	 0.00000000E+00	 0.00000000E+00	 0.00000000E+00	 0.00000000E+00
1.62964296E+07	 5.04481002E-01	 1.77413852E+02	 5.04109410E-01	-3.38077182E+00	 0.00000000E+00	 0.00000000E+00	 0.00000000E+00	 0.00000000E+00
1.65963596E+07	 5.04344730E-01	 1.77358914E+02	 5.04093865E-01	-3.45548978E+00	 0.00000000E+00	 0.00000000E+00	 0.00000000E+00	 0.00000000E+00
1.68962896E+07	 5.04200139E-01	 1.77324193E+02	 5.03873224E-01	-3.51234557E+00	 0.00000000E+00	 0.00000000E+00	 0.00000000E+00	 0.00000000E+00
1.71962196E+07	 5.04172212E-01	 1.77285326E+02	 5.03951284E-01	-3.56161200E+00	 0.00000000E+00	 0.00000000E+00	 0.00000000E+00	 0.00000000E+00
1.74961496E+07	 5.03943418E-01	 1.77250415E+02	 5.03724317E-01	-3.61965792E+00	 0.00000000E+00	 0.00000000E+00	 0.00000000E+00	 0.00000000E+00
1.77960796E+07	 5.03837389E-01	 1.77202888E+02	 5.03516881E-01	-3.69264647E+00	 0.00000000E+00	 0.00000000E+00	 0.00000000E+00	 0.00000000E+00
1.80960096E+07	 5.03639999E-01	 1.77155377E+02	 5.03501489E-01	-3.73457418E+00	 0.00000000E+00	 0.00000000E+00	 0.00000000E+00	 0.00000000E+00
1.83959396E+07	 5.03701459E-01	 1.77113649E+02	 5.03530584E-01	-3.79990985E+00	 0.00000000E+00	 0.00000000E+00	 0.00000000E+00	 0.00000000E+00
1.86958696E+07	 5.03554240E-01	 1.77085312E+02	 5.03323191E-01	-3.85231032E+00	 0.00000000E+00	 0.00000000E+00	 0.00000000E+00	 0.00000000E+00
1.89957996E+07	 5.03642112E-01	 1.77035194E+02	 5.03252314E-01	-3.88739932E+00	 0.00000000E+00	 0.00000000E+00	 0.00000000E+00	 0.00000000E+00
1.92957296E+07	 5.03426558E-01	 1.77001916E+02	 5.03153172E-01	-3.96543213E+00	 0.00000000E+00	 0.00000000E+00	 0.00000000E+00	 0.00000000E+00
1.95956596E+07	 5.03124982E-01	 1.76975627E+02	 5.03052436E-01	-4.01046818E+00	 0.00000000E+00	 0.00000000E+00	 0.00000000E+00	 0.00000000E+00
1.98955896E+07	 5.03279874E-01	 1.76925232E+02	 5.02927642E-01	-4.06479951E+00	 0.00000000E+00	 0.00000000E+00	 0.00000000E+00	 0.00000000E+00
2.01955196E+07	 5.03225261E-01	 1.76890059E+02	 5.02901574E-01	-4.12872333E+00	 0.00000000E+00	 0.00000000E+00	 0.00000000E+00	 0.00000000E+00
2.04954495E+07	 5.03116946E-01	 1.76869560E+02	 5.02796732E-01	-4.16652277E+00	 0.00000000E+00	 0.00000000E+00	 0.00000000E+00	 0.00000000E+00
2.07953795E+07	 5.02953609E-01	 1.76817782E+02	 5.02694454E-01	-4.21008024E+00	 0.00000000E+00	 0.00000000E+00	 0.00000000E+00	 0.00000000E+00
2.10953095E+07	 5.02852648E-01	 1.76776337E+02	 5.02726854E-01	-4.27393272E+00	 0.00000000E+00	 0.00000000E+00	 0.00000000E+00	 0.00000000E+00
2.13952395E+07	 5.02945033E-01	 1.76730167E+02	 5.02667608E-01	-4.33558453E+00	 0.00000000E+00	 0.00000000E+00	 0.00000000E+00	 0.00000000E+00
2.16951695E+07	 5.02499438E-01	 1.76693923E+02	 5.02255988E-01	-4.39571260E+00	 0.00000000E+00	 0.00000000E+00	 0.00000000E+00	 0.00000000E+00
2.19950995E+07	 5.02476515E-01	 1.76674332E+02	 5.02342965E-01	-4.44779899E+00	 0.00000000E+00	 0.00000000E+00	 0.00000000E+00	 0.00000000E+00
2.22950295E+07	 5.02497183E-01	 1.76611667E+02	 5.02288693E-01	-4.50783497E+00	 0.00000000E+00	 0.00000000E+00	 0.00000000E+00	 0.00000000E+00
2.25949595E+07	 5.02236493E-01	 1.76572118E+02	 5.02194030E-01	-4.57013163E+00	 0.00000000E+00	 0.00000000E+00	 0.00000000E+00	 0.00000000E+00
2.28948895E+07	 5.02306204E-01	 1.76564648E+02	 5.02101952E-01	-4.59718764E+00	 0.00000000E+00	 0.00000000E+00	 0.00000000E+00	 0.00000000E+00
2.31948195E+07	 5.02127505E-01	 1.76530710E+02	 5.01915230E-01	-4.65434886E+00	 0.00000000E+00	 0.00000000E+00	 0.00000000E+00	 0.00000000E+00
2.34947495E+07	 5.01993365E-01	 1.76471223E+02	 5.01929896E-01	-4.72455391E+00	 0.00000000E+00	 0.00000000E+00	 0.00000000E+00	 0.00000000E+00
2.37946795E+07	 5.02002741E-01	 1.76440539E+02	 5.01775770E-01	-4.78010701E+00	 0.00000000E+00	 0.00000000E+00	 0.00000000E+00	 0.00000000E+00
2.40946095E+07	 5.01602801E-01	 1.76399785E+02	 5.01544600E-01	-4.81360064E+00	 0.00000000E+00	 0.00000000E+00	 0.00000000E+00	 0.00000000E+00
2.43945395E+07	 5.01654652E-01	 1.76362444E+02	 5.01359503E-01	-4.85896336E+00	 0.00000000E+00	 0.00000000E+00	 0.00000000E+00	 0.00000000E+00
2.46944694E+07	 5.01684188E-01	 1.76302722E+02	 5.01535231E-01	-4.93469272E+00	 0.00000000E+00	 0.00000000E+00	 0.00000000E+00	 0.00000000E+00
2.49943994E+07	 5.01476918E-01	 1.76291715E+02	 5.01329433E-01	-4.99103466E+00	 0.00000000E+00	 0.00000000E+00	 0.00000000E+00	 0.00000000E+00
2.52943294E+07	 5.01507029E-01	 1.76251387E+02	 5.01561944E-01	-5.03826662E+00	 0.00000000E+00	 0.00000000E+00	 0.00000000E+00	 0.00000000E+00
2.55942594E+07	 5.01479130E-01	 1.76226263E+02	 5.01326501E-01	-5.09484924E+00	 0.00000000E+00	 0.00000000E+00	 0.00000000E+00	 0.00000000E+00
2.58941894E+07	 5.01341398E-01	 1.76165085E+02	 5.01288079E-01	-5.15801915E+00	 0.00000000E+00	 0.00000000E+00	 0.00000000E+00	 0.00000000E+00
2.61941194E+07	 5.01186766E-01	 1.76154954E+02	 5.01285808E-01	-5.16385769E+00	 0.00000000E+00	 0.00000000E+00	 0.00000000E+00	 0.00000000E+00
2.64940494E+07	 5.01125550E-01	 1.76103595E+02	 5.00989821E-01	-5.23988346E+00	 0.00000000E+00	 0.00000000E+00	 0.00000000E+00	 0.00000000E+00
2.67939794E+07	 5.00868010E-01	 1.76076083E+02	 5.00784889E-01	-5.27771586E+00	 0.00000000E+00	 0.00000000E+00	 0.00000000E+00	 0.00000000E+00
2.70939094E+07	 5.00874264E-01	 1.76054414E+02	 5.00813234E-01	-5.33000753E+00	 0.00000000E+00	 0.00000000E+00	 0.00000000E+00	 0.00000000E+00
2.73938394E+07	 5.00680339E-01	 1.76016216E+02	 5.00725637E-01	-5.38724733E+00	 0.00000000E+00	 0.00000000E+00	 0.00000000E+00	 0.00000000E+00
2.76937694E+07	 5.00460671E-01	 1.75988251E+02	 5.00394023E-01	-5.43176196E+00	 0.00000000E+00	 0.00000000E+00	 0.00000000E+00	 0.00000000E+00
2.79936994E+07	 5.00511010E-01	 1.75931363E+02	 5.00423529E-01	-5.49321332E+00	 0.00000000E+00	 0.00000000E+00	 0.00000000E+00	 0.00000000E+00
2.82936294E+07	 5.00426315E-01	 1.75901890E+02	 5.00247067E-01	-5.53328120E+00	 0.00000000E+00	 0.00000000E+00	 0.00000000E+00	 0.00000000E+00
2.85935594E+07	 5.00142285E-01	 1.75870182E+02	 5.00318012E-01	-5.60092768E+00	 0.00000000E+00	 0.00000000E+00	 0.00000000E+00	 0.00000000E+00
2.88934893E+07	 5.00214187E-01	 1.75813897E+02	 5.00230901E-01	-5.66501397E+00	 0.00000000E+00	 0.00000000E+00	 0.00000000E+00	 0.00000000E+00
2.91934193E+07	 4.99699597E-01	 1.75791281E+02	 4.99833821E-01	-5.69856588E+00	 0.00000000E+00	 0.00000000E+00	 0.00000000E+00	 0.00000000E+00
2.94933493E+07	 4.99952245E-01	 1.75752141E+02	 5.00096225E-01	-5.73011134E+00	 0.00000000E+00	 0.00000000E+00	 0.00000000E+00	 0.00000000E+00
2.97932793E+07	 4.99791610E-01	 1.75721848E+02	 5.00016516E-01	-5.78831296E+00	 0.00000000E+00	 0.00000000E+00	 0.00000000E+00	 0.00000000E+00
3.00932093E+07	 4.99609288E-01	 1.75700806E+02	 4.99882513E-01	-5.82567288E+00	 0.00000000E+00	 0.00000000E+00	 0.00000000E+00	 0.00000000E+00
3.03931393E+07	 4.99490133E-01	 1.75645541E+02	 4.99702567E-01	-5.90654681E+00	 0.00000000E+00	 0.00000000E+00	 0.00000000E+00	 0.00000000E+00
3.06930693E+07	 4.99463103E-01	 1.75622217E+02	 4.99665892E-01	-5.95265438E+00	 0.00000000E+00	 0.00000000E+00	 0.00000000E+00	 0.00000000E+00
3.09929993E+07	 4.99504430E-01	 1.75579251E+02	 4.99566007E-01	-5.99698261E+00	 0.00000000E+00	 0.00000000E+00	 0.00000000E+00	 0.00000000E+00
3.12929293E+07	 4.99454130E-01	 1.75548956E+02	 4.99547838E-01	-6.04665875E+00	 0.00000000E+00	 0.00000000E+00	 0.00000000E+00	 0.00000000E+00
3.15928593E+07	 4.99447874E-01	 1.75529459E+02	 4.99534860E-01	-6.06294056E+00	 0.00000000E+00	 0.00000000E+00	 0.00000000E+00	 0.00000000E+00
3.18927893E+07	 4.99115732E-01	 1.75463884E+02	 4.99079145E-01	-6.13327595E+00	 0.00000000E+00	 0.00000000E+00	 0.00000000E+00	 0.00000000E+00
3.21927193E+07	 4.98966104E-01	 1.75448271E+02	 4.99174647E-01	-6.19895466E+00	 0.00000000E+00	 0.00000000E+00	 0.00000000E+00	 0.00000000E+00
3.24926493E+07	 4.98932567E-01	 1.75442221E+02	 4.99406023E-01	-6.21488465E+00	 0.00000000E+00	 0.00000000E+00	 0.00000000E+00	 0.00000000E+00
3.27925793E+07	 4.98793591E-01	 1.75380263E+02	 4.98882057E-01	-6.30364227E+00	 0.00000000E+00	 0.00000000E+00	 0.00000000E+00	 0.00000000E+00
3.30925093E+07	 4.98713109E-01	 1.75348924E+02	 4.98993654E-01	-6.33809092E+00	 0.00000000E+00	 0.00000000E+00	 0.00000000E+00	 0.00000000E+00
3.33924392E+07	 4.98587933E-01	 1.75316655E+02	 4.98704851E-01	-6.37488147E+00	 0.00000000E+00	 0.00000000E+00	 0.00000000E+00	 0.00000000E+00
3.36923692E+07	 4.98291040E-01	 1.75285767E+02	 4.98390597E-01	-6.43980559E+00	 0.00000000E+00	 0.00000000E+00	 0.00000000E+00	 0.00000000E+00
3.39922992E+07	 4.98186769E-01	 1.75232266E+02	 4.98610262E-01	-6.46695859E+00	 0.00000000E+00	 0.00000000E+00	 0.00000000E+00	 0.00000000E+00
3.42922292E+07	 4.98420167E-01	 1.75193613E+02	 4.98632584E-01	-6.52022935E+00	 0.00000000E+00	 0.00000000E+00	 0.00000000E+00	 0.00000000E+00
3.45921592E+07	 4.98072313E-01	 1.75165328E+02	 4.98487481E-01	-6.57099724E+00	 0.00000000E+00	 0.00000000E+00	 0.00000000E+00	 0.00000000E+00
3.48920892E+07	 4.98129315E-01	 1.75158303E+02	 4.98590541E-01	-6.60601285E+00	 0.00000000E+00	 0.00000000E+00	 0.00000000E+00	 0.00000000E+00
3.51920192E+07	 4.98008835E-01	 1.75095750E+02	 4.98284321E-01	-6.69011884E+00	 0.00000000E+00	 0.00000000E+00	 0.00000000E+00	 0.00000000E+00
3.54919492E+07	 4.97926918E-01	 1.75115002E+02	 4.98210922E-01	-6.70357707E+00	 0.00000000E+00	 0.00000000E+00	 0.00000000E+00	 0.00000000E+00
3.57918792E+07	 4.97890599E-01	 1.75045121E+02	 4.98351837E-01	-6.77466309E+00	 0.00000000E+00	 0.00000000E+00	 0.00000000E+00	 0.00000000E+00
3.60918092E+07	 4.97671470E-01	 1.75038564E+02	 4.98132558E-01	-6.80499824E+00	 0.00000000E+00	 0.00000000E+00	 0.00000000E+00	 0.00000000E+00
3.63917392E+07	 4.97706887E-01	 1.74977459E+02	 4.98021979E-01	-6.85545368E+00	 0.00000000E+00	 0.00000000E+00	 0.00000000E+00	 0.00000000E+00
3.66916692E+07	 4.97523621E-01	 1.74978628E+02	 4.98028384E-01	-6.88237900E+00	 0.00000000E+00	 0.00000000E+00	 0.00000000E+00	 0.00000000E+00
3.69915992E+07	 4.97329036E-01	 1.74921842E+02	 4.97721769E-01	-6.95570416E+00	 0.00000000E+00	 0.00000000E+00	 0.00000000E+00	 0.00000000E+00
3.72915292E+07	 4.97497506E-01	 1.74904405E+02	 4.97712062E-01	-7.00158827E+00	 0.00000000E+00	 0.00000000E+00	 0.00000000E+00	 0.00000000E+00
3.75914591E+07	 4.97130019E-01	 1.74888440E+02	 4.97680530E-01	-6.99684050E+00	 0.00000000E+00	 0.00000000E+00	 0.00000000E+00	 0.00000000E+00
3.78913891E+07	 4.96959828E-01	 1.74868868E+02	 4.97673702E-01	-7.06300467E+00	 0.00000000E+00	 0.00000000E+00	 0.00000000E+00	 0.00000000E+00
3.81913191E+07	 4.96886035E-01	 1.74798873E+02	 4.97704943E-01	-7.11370537E+00	 0.00000000E+00	 0.00000000E+00	 0.00000000E+00	 0.00000000E+00
3.84912491E+07	 4.96843751E-01	 1.74778122E+02	 4.97485748E-01	-7.18029782E+00	 0.00000000E+00	 0.00000000E+00	 0.00000000E+00	 0.00000000E+00
3.87911791E+07	 4.96914452E-01	 1.74731809E+02	 4.97792283E-01	-7.24738396E+00	 0.00000000E+00	 0.00000000E+00	 0.00000000E+00	 0.00000000E+00
3.90911091E+07	 4.96637929E-01	 1.74732451E+02	 4.97421174E-01	-7.25267497E+00	 0.00000000E+00	 0.00000000E+00	 0.00000000E+00	 0.00000000E+00
3.93910391E+07	 4.96622806E-01	 1.74692690E+02	 4.97440058E-01	-7.31142123E+00	 0.00000000E+00	 0.00000000E+00	 0.00000000E+00	 0.00000000E+00
3.96909691E+07	 4.96628986E-01	 1.74637228E+02	 4.97432946E-01	-7.37130918E+00	 0.00000000E+00	 0.00000000E+00	 0.00000000E+00	 0.00000000E+00
3.99908991E+07	 4.96561970E-01	 1.74629267E+02	 4.97390617E-01	-7.39642496E+00	 0.00000000E+00	 0.00000000E+00	 0.00000000E+00	 0.00000000E+00
4.02908291E+07	 4.96317364E-01	 1.74605329E+02	 4.97122129E-01	-7.46825319E+00	 0.00000000E+00	 0.00000000E+00	 0.00000000E+00	 0.00000000E+00
4.05907591E+07	 4.96319484E-01	 1.74575511E+02	 4.97149496E-01	-7.49296574E+00	 0.00000000E+00	 0.00000000E+00	 0.00000000E+00	 0.00000000E+00
4.08906891E+07	 4.96259333E-01	 1.74524668E+02	 4.97070295E-01	-7.52854063E+00	 0.00000000E+00	 0.00000000E+00	 0.00000000E+00	 0.00000000E+00
4.11906191E+07	 4.96101368E-01	 1.74507530E+02	 4.96993559E-01	-7.57006654E+00	 0.00000000E+00	 0.00000000E+00	 0.00000000E+00	 0.00000000E+00
4.14905491E+07	 4.95927622E-01	 1.74504279E+02	 4.97222991E-01	-7.61367143E+00	 0.00000000E+00	 0.00000000E+00	 0.00000000E+00	 0.00000000E+00
