# Hz S DB R 50
! CMT, S5048, 17087083, 18.1.5/2
! Date: 07/03/2018 16:24:40
! Data: Format (Calibration Info)
! Freq                      S11: dB/Ang (F2)           
1.00000000000E+06 -1.79058172287E-02 +1.79758226364E+02
1.09990999100E+06 -1.72950296962E-02 +1.79693441288E+02
1.19981998200E+06 -1.64299923403E-02 +1.79633799710E+02
1.29972997300E+06 -1.88831820414E-02 +1.79564601788E+02
1.39963996400E+06 -1.62240111620E-02 +1.79501366926E+02
1.49954995500E+06 -1.86544098684E-02 +1.79420677424E+02
1.59945994599E+06 -1.91147979028E-02 +1.79351366918E+02
1.69936993699E+06 -1.89911073387E-02 +1.79292370924E+02
1.79927992799E+06 -1.81215582739E-02 +1.79239459707E+02
1.89918991899E+06 -1.99386837695E-02 +1.79152129704E+02
1.99909990999E+06 -1.82644937383E-02 +1.79087285647E+02
2.09900990099E+06 -1.86596352196E-02 +1.79026973762E+02
2.19891989199E+06 -2.01164861727E-02 +1.78960923834E+02
2.29882988299E+06 -1.77206598765E-02 +1.78895428586E+02
2.39873987399E+06 -2.06953328397E-02 +1.78827091363E+02
2.49864986499E+06 -1.97945118135E-02 +1.78755045040E+02
2.59855985599E+06 -2.03435308775E-02 +1.78675861864E+02
2.69846984698E+06 -2.17980566874E-02 +1.78629360506E+02
2.79837983798E+06 -2.02936241469E-02 +1.78561793623E+02
2.89828982898E+06 -2.16858164442E-02 +1.78485956940E+02
2.99819981998E+06 -2.08090135109E-02 +1.78414701211E+02
3.09810981098E+06 -2.04412513945E-02 +1.78351028442E+02
3.19801980198E+06 -2.07904182628E-02 +1.78278563462E+02
3.29792979298E+06 -2.24224716206E-02 +1.78207106846E+02
3.39783978398E+06 -2.14458934523E-02 +1.78147337441E+02
3.49774977498E+06 -2.16324329519E-02 +1.78076810775E+02
3.59765976598E+06 -2.16444830054E-02 +1.78010461898E+02
3.69756975698E+06 -2.30159679381E-02 +1.77941378582E+02
3.79747974797E+06 -2.24296952734E-02 +1.77877573464E+02
3.89738973897E+06 -2.29512686858E-02 +1.77812192151E+02
3.99729972997E+06 -2.15153811831E-02 +1.77747503787E+02
4.09720972097E+06 -2.23707605614E-02 +1.77684564255E+02
4.19711971197E+06 -2.23876663633E-02 +1.77613893042E+02
4.29702970297E+06 -2.33365594764E-02 +1.77535080274E+02
4.39693969397E+06 -2.49565777010E-02 +1.77477278918E+02
4.49684968497E+06 -2.34484697874E-02 +1.77407113754E+02
4.59675967597E+06 -2.36300330808E-02 +1.77337003965E+02
4.69666966697E+06 -2.27590821024E-02 +1.77267138128E+02
4.79657965797E+06 -2.56905770790E-02 +1.77197276837E+02
4.89648964896E+06 -2.40599489997E-02 +1.77138371352E+02
4.99639963996E+06 -2.59232222648E-02 +1.77056514598E+02
5.09630963096E+06 -2.42406078785E-02 +1.77004881771E+02
5.19621962196E+06 -2.32263031225E-02 +1.76933729262E+02
5.29612961296E+06 -2.49734661019E-02 +1.76860071639E+02
5.39603960396E+06 -2.46171780783E-02 +1.76795226526E+02
5.49594959496E+06 -2.46696911440E-02 +1.76740483999E+02
5.59585958596E+06 -2.50422512631E-02 +1.76662429861E+02
5.69576957696E+06 -2.58524999477E-02 +1.76594567566E+02
5.79567956796E+06 -2.67427679210E-02 +1.76527484577E+02
5.89558955896E+06 -2.46179590805E-02 +1.76463078290E+02
5.99549954995E+06 -2.49369696307E-02 +1.76376528043E+02
6.09540954095E+06 -2.64986804682E-02 +1.76314934167E+02
6.19531953195E+06 -2.43771159354E-02 +1.76246252326E+02
6.29522952295E+06 -2.60991731738E-02 +1.76186758790E+02
6.39513951395E+06 -2.66420960926E-02 +1.76101775657E+02
6.49504950495E+06 -2.60508455908E-02 +1.76035851724E+02
6.59495949595E+06 -2.79265934808E-02 +1.75984736877E+02
6.69486948695E+06 -2.59339189976E-02 +1.75912397852E+02
6.79477947795E+06 -2.65230731767E-02 +1.75832584373E+02
6.89468946895E+06 -2.62648551293E-02 +1.75759931473E+02
6.99459945995E+06 -2.79662090172E-02 +1.75714378903E+02
7.09450945095E+06 -2.75735042774E-02 +1.75638040485E+02
7.19441944194E+06 -2.71582305553E-02 +1.75559156455E+02
7.29432943294E+06 -2.86758865347E-02 +1.75505979963E+02
7.39423942394E+06 -2.59631088503E-02 +1.75406929430E+02
7.49414941494E+06 -2.81569063153E-02 +1.75351697060E+02
7.59405940594E+06 -3.00051246145E-02 +1.75301992557E+02
7.69396939694E+06 -2.76896853528E-02 +1.75209523086E+02
7.79387938794E+06 -2.85855557350E-02 +1.75148600328E+02
7.89378937894E+06 -2.90566771965E-02 +1.75079211873E+02
7.99369936994E+06 -2.82766156655E-02 +1.75020159765E+02
8.09360936094E+06 -2.75268317711E-02 +1.74942270308E+02
8.19351935194E+06 -2.67683870089E-02 +1.74867810676E+02
8.29342934293E+06 -2.80362402395E-02 +1.74807664986E+02
8.39333933393E+06 -2.72843168849E-02 +1.74728806206E+02
8.49324932493E+06 -2.97977537190E-02 +1.74656444440E+02
8.59315931593E+06 -2.82962461156E-02 +1.74611939150E+02
8.69306930693E+06 -3.06137890813E-02 +1.74529848272E+02
8.79297929793E+06 -2.94811151469E-02 +1.74466719621E+02
8.89288928893E+06 -2.94868161653E-02 +1.74374831635E+02
8.99279927993E+06 -2.96812159599E-02 +1.74315217547E+02
9.09270927093E+06 -2.83637302773E-02 +1.74237778463E+02
9.19261926193E+06 -3.11076229525E-02 +1.74174404702E+02
9.29252925293E+06 -3.13042249730E-02 +1.74126765054E+02
9.39243924392E+06 -2.89652391650E-02 +1.74036584317E+02
9.49234923492E+06 -3.07231442384E-02 +1.73972135162E+02
9.59225922592E+06 -3.01490244662E-02 +1.73901196595E+02
9.69216921692E+06 -2.99085533548E-02 +1.73814803167E+02
9.79207920792E+06 -3.27149346654E-02 +1.73753172054E+02
9.89198919892E+06 -3.34011286841E-02 +1.73684128488E+02
9.99189918992E+06 -3.14390628677E-02 +1.73615320719E+02
1.00918091809E+07 -3.11050409200E-02 +1.73535692861E+02
1.01917191719E+07 -3.00571815312E-02 +1.73475118232E+02
1.02916291629E+07 -3.25128861354E-02 +1.73398628784E+02
1.03915391539E+07 -3.25624941540E-02 +1.73333117640E+02
1.04914491449E+07 -3.19506414699E-02 +1.73252665541E+02
1.05913591359E+07 -3.36128352895E-02 +1.73194129731E+02
1.06912691269E+07 -3.29998952592E-02 +1.73116724917E+02
1.07911791179E+07 -3.25993523524E-02 +1.73046530787E+02
1.08910891089E+07 -3.15735934701E-02 +1.72984579529E+02
1.09909990999E+07 -3.28013571545E-02 +1.72913042268E+02
1.10909090909E+07 -3.27952612347E-02 +1.72831192630E+02
1.11908190819E+07 -3.32053982669E-02 +1.72763826457E+02
1.12907290729E+07 -3.13256155207E-02 +1.72671695784E+02
1.13906390639E+07 -3.48573429136E-02 +1.72610612662E+02
1.14905490549E+07 -3.24727430939E-02 +1.72541521120E+02
1.15904590459E+07 -3.18079111198E-02 +1.72485947136E+02
1.16903690369E+07 -3.42647394928E-02 +1.72409015776E+02
1.17902790279E+07 -3.59870183978E-02 +1.72335050944E+02
1.18901890189E+07 -3.27862756687E-02 +1.72253555311E+02
1.19900990099E+07 -3.40610578708E-02 +1.72176787983E+02
1.20900090009E+07 -3.44636576765E-02 +1.72113657503E+02
1.21899189919E+07 -3.67406709175E-02 +1.72044535067E+02
1.22898289829E+07 -3.48461166787E-02 +1.71968892960E+02
1.23897389739E+07 -3.41107949347E-02 +1.71894607775E+02
1.24896489649E+07 -3.52798176486E-02 +1.71807105705E+02
1.25895589559E+07 -3.56793706016E-02 +1.71737629744E+02
1.26894689469E+07 -3.53676177613E-02 +1.71690247657E+02
1.27893789379E+07 -3.26152830687E-02 +1.71587922969E+02
1.28892889289E+07 -3.44700198155E-02 +1.71521918575E+02
1.29891989199E+07 -3.71025891624E-02 +1.71462774892E+02
1.30891089109E+07 -3.53599490009E-02 +1.71386121183E+02
1.31890189019E+07 -3.36390998246E-02 +1.71297822290E+02
1.32889288929E+07 -3.54065044319E-02 +1.71236894354E+02
1.33888388839E+07 -3.41140091103E-02 +1.71153834137E+02
1.34887488749E+07 -3.74240801511E-02 +1.71088096432E+02
1.35886588659E+07 -3.58579785998E-02 +1.71013556929E+02
1.36885688569E+07 -3.77016366167E-02 +1.70957693039E+02
1.37884788479E+07 -3.42250247249E-02 +1.70868213675E+02
1.38883888389E+07 -3.90554091550E-02 +1.70799883398E+02
1.39882988299E+07 -3.89836559701E-02 +1.70714507246E+02
1.40882088209E+07 -3.77181328447E-02 +1.70630775247E+02
1.41881188119E+07 -3.71665892233E-02 +1.70583324993E+02
1.42880288029E+07 -3.50520444182E-02 +1.70499262350E+02
1.43879387939E+07 -3.76041783471E-02 +1.70424296285E+02
1.44878487849E+07 -3.84731615369E-02 +1.70355725158E+02
1.45877587759E+07 -3.72886552557E-02 +1.70275355786E+02
1.46876687669E+07 -4.09468185360E-02 +1.70193164000E+02
1.47875787579E+07 -3.69614834290E-02 +1.70107698165E+02
1.48874887489E+07 -3.83086946921E-02 +1.70039465492E+02
1.49873987399E+07 -3.98512916804E-02 +1.69958898997E+02
1.50873087309E+07 -3.99534055566E-02 +1.69896507058E+02
1.51872187219E+07 -3.95809103003E-02 +1.69819666212E+02
1.52871287129E+07 -3.82316436036E-02 +1.69738928617E+02
1.53870387039E+07 -4.08343698240E-02 +1.69634277981E+02
1.54869486949E+07 -3.99551339535E-02 +1.69583744509E+02
1.55868586859E+07 -3.80074984300E-02 +1.69511987706E+02
1.56867686769E+07 -3.98097813399E-02 +1.69420849862E+02
1.57866786679E+07 -3.96274992515E-02 +1.69365460247E+02
1.58865886589E+07 -4.03717059198E-02 +1.69270135220E+02
1.59864986499E+07 -4.04511868404E-02 +1.69189939424E+02
1.60864086409E+07 -4.25694809156E-02 +1.69115297762E+02
1.61863186319E+07 -3.85956544866E-02 +1.69045533569E+02
1.62862286229E+07 -3.77018933008E-02 +1.68959891395E+02
1.63861386139E+07 -4.19699696892E-02 +1.68897626776E+02
1.64860486049E+07 -4.03256280607E-02 +1.68802156129E+02
1.65859585959E+07 -4.01842181349E-02 +1.68728546614E+02
1.66858685869E+07 -4.19684537100E-02 +1.68645973576E+02
1.67857785779E+07 -4.07767836497E-02 +1.68570856281E+02
1.68856885689E+07 -4.05000794769E-02 +1.68496410109E+02
1.69855985599E+07 -3.90811821741E-02 +1.68411080956E+02
1.70855085509E+07 -4.39428526066E-02 +1.68347410578E+02
1.71854185419E+07 -4.27073628394E-02 +1.68248732230E+02
1.72853285329E+07 -4.04555199318E-02 +1.68180787369E+02
1.73852385239E+07 -4.16280521501E-02 +1.68112589835E+02
1.74851485149E+07 -4.15609124208E-02 +1.68017349287E+02
1.75850585059E+07 -4.14577910299E-02 +1.67923254755E+02
1.76849684968E+07 -4.11835652982E-02 +1.67826650482E+02
1.77848784878E+07 -4.24570652100E-02 +1.67797773714E+02
1.78847884788E+07 -4.35699318256E-02 +1.67704184152E+02
1.79846984698E+07 -4.38910733046E-02 +1.67604613614E+02
1.80846084608E+07 -4.09957920824E-02 +1.67527380757E+02
1.81845184518E+07 -4.35059583757E-02 +1.67478453360E+02
1.82844284428E+07 -4.07699904720E-02 +1.67382311673E+02
1.83843384338E+07 -4.50880922611E-02 +1.67272075021E+02
1.84842484248E+07 -4.38526525938E-02 +1.67219517865E+02
1.85841584158E+07 -4.78459580752E-02 +1.67114305581E+02
1.86840684068E+07 -4.23410902394E-02 +1.67036658968E+02
1.87839783978E+07 -4.56200334065E-02 +1.66976183639E+02
1.88838883888E+07 -4.77602273833E-02 +1.66901519410E+02
1.89837983798E+07 -4.36771096619E-02 +1.66804999533E+02
1.90837083708E+07 -4.73890007318E-02 +1.66717599873E+02
1.91836183618E+07 -4.45902249052E-02 +1.66626706910E+02
1.92835283528E+07 -4.47890533436E-02 +1.66593165920E+02
1.93834383438E+07 -4.78939338636E-02 +1.66457956095E+02
1.94833483348E+07 -4.65077071041E-02 +1.66386032028E+02
1.95832583258E+07 -4.72877593436E-02 +1.66305854720E+02
1.96831683168E+07 -4.68009953959E-02 +1.66205036704E+02
1.97830783078E+07 -4.88141584886E-02 +1.66129331645E+02
1.98829882988E+07 -4.61741671845E-02 +1.66053379254E+02
1.99828982898E+07 -4.83234607458E-02 +1.65950336766E+02
2.00828082808E+07 -4.49325621446E-02 +1.65885661082E+02
2.01827182718E+07 -4.95160943035E-02 +1.65800590802E+02
2.02826282628E+07 -4.92231155677E-02 +1.65710052726E+02
2.03825382538E+07 -4.56726651955E-02 +1.65630471928E+02
2.04824482448E+07 -4.57411689467E-02 +1.65542912508E+02
2.05823582358E+07 -4.98321210308E-02 +1.65462838584E+02
2.06822682268E+07 -4.80522838533E-02 +1.65359554652E+02
2.07821782178E+07 -4.87135724753E-02 +1.65273299543E+02
2.08820882088E+07 -4.92288987765E-02 +1.65209453691E+02
2.09819981998E+07 -5.02563934113E-02 +1.65126976475E+02
2.10819081908E+07 -5.04285138811E-02 +1.64996044636E+02
2.11818181818E+07 -4.81982892669E-02 +1.64907559123E+02
2.12817281728E+07 -4.73231865565E-02 +1.64856530416E+02
2.13816381638E+07 -4.66080960351E-02 +1.64769891193E+02
2.14815481548E+07 -5.00581647982E-02 +1.64694076993E+02
2.15814581458E+07 -4.79570139741E-02 +1.64593034319E+02
2.16813681368E+07 -5.06650599988E-02 +1.64467348187E+02
2.17812781278E+07 -4.89341942761E-02 +1.64409454675E+02
2.18811881188E+07 -4.99405651277E-02 +1.64317716792E+02
2.19810981098E+07 -5.56293118303E-02 +1.64231516728E+02
2.20810081008E+07 -5.22517888571E-02 +1.64125886439E+02
2.21809180918E+07 -5.11628700425E-02 +1.64054014772E+02
2.22808280828E+07 -4.90243431978E-02 +1.63954023526E+02
2.23807380738E+07 -5.35322092620E-02 +1.63874003470E+02
2.24806480648E+07 -5.08056800097E-02 +1.63792138105E+02
2.25805580558E+07 -4.96506601100E-02 +1.63682940595E+02
2.26804680468E+07 -5.14070493882E-02 +1.63607377308E+02
2.27803780378E+07 -5.45641337357E-02 +1.63495349728E+02
2.28802880288E+07 -5.43126744993E-02 +1.63419497467E+02
2.29801980198E+07 -5.36239178905E-02 +1.63324681179E+02
2.30801080108E+07 -5.33716425310E-02 +1.63225286975E+02
2.31800180018E+07 -5.42450543499E-02 +1.63150989555E+02
2.32799279928E+07 -5.68158909094E-02 +1.63037525151E+02
2.33798379838E+07 -5.64915979833E-02 +1.62971234860E+02
2.34797479748E+07 -5.24973453551E-02 +1.62840180662E+02
2.35796579658E+07 -5.24740741239E-02 +1.62772599631E+02
2.36795679568E+07 -5.51834495870E-02 +1.62671531992E+02
2.37794779478E+07 -5.49543613169E-02 +1.62591898735E+02
2.38793879388E+07 -5.79675430306E-02 +1.62486790580E+02
2.39792979298E+07 -5.63032459442E-02 +1.62375708850E+02
2.40792079208E+07 -5.39131237204E-02 +1.62283449411E+02
2.41791179118E+07 -5.61336329708E-02 +1.62191747110E+02
2.42790279028E+07 -5.69113656020E-02 +1.62123080795E+02
2.43789378938E+07 -5.63302605434E-02 +1.62015135838E+02
2.44788478848E+07 -5.59578395860E-02 +1.61911812461E+02
2.45787578758E+07 -5.64407234775E-02 +1.61812038686E+02
2.46786678668E+07 -5.80706248824E-02 +1.61726608523E+02
2.47785778578E+07 -5.81408300340E-02 +1.61664026251E+02
2.48784878488E+07 -6.27695649864E-02 +1.61554926158E+02
2.49783978398E+07 -5.71542622735E-02 +1.61417573317E+02
2.50783078308E+07 -5.87445022638E-02 +1.61351492838E+02
2.51782178218E+07 -5.40893147692E-02 +1.61254769583E+02
2.52781278128E+07 -6.30091192864E-02 +1.61149377748E+02
2.53780378038E+07 -6.19119897670E-02 +1.61027465767E+02
2.54779477948E+07 -6.13177198764E-02 +1.60941099346E+02
2.55778577858E+07 -6.22647027055E-02 +1.60852491579E+02
2.56777677768E+07 -5.90682109358E-02 +1.60743843895E+02
2.57776777678E+07 -6.00618335928E-02 +1.60644553057E+02
2.58775877588E+07 -6.23369676287E-02 +1.60552413694E+02
2.59774977498E+07 -6.37118026933E-02 +1.60430269617E+02
2.60774077408E+07 -6.17291369241E-02 +1.60319423193E+02
2.61773177318E+07 -6.12349348021E-02 +1.60247905203E+02
2.62772277228E+07 -6.17419381819E-02 +1.60147682779E+02
2.63771377138E+07 -6.19151278534E-02 +1.60036985236E+02
2.64770477048E+07 -6.26446266649E-02 +1.59937140892E+02
2.65769576958E+07 -5.87439935644E-02 +1.59838936867E+02
2.66768676868E+07 -6.27938479826E-02 +1.59745487237E+02
2.67767776778E+07 -5.86498079522E-02 +1.59610597495E+02
2.68766876688E+07 -6.24144061405E-02 +1.59506637952E+02
2.69765976598E+07 -6.40801533640E-02 +1.59397050381E+02
2.70765076508E+07 -6.31128808374E-02 +1.59281671230E+02
2.71764176418E+07 -6.09398381205E-02 +1.59208981304E+02
2.72763276328E+07 -6.51321531693E-02 +1.59113158934E+02
2.73762376238E+07 -6.42248675548E-02 +1.58997318357E+02
2.74761476148E+07 -6.06894639445E-02 +1.58879310998E+02
2.75760576058E+07 -6.75633576799E-02 +1.58786778019E+02
2.76759675968E+07 -6.59903938404E-02 +1.58675834663E+02
2.77758775878E+07 -6.52853878231E-02 +1.58568799996E+02
2.78757875788E+07 -6.34710978826E-02 +1.58467170045E+02
2.79756975698E+07 -6.71580269444E-02 +1.58349883508E+02
2.80756075608E+07 -6.80288352719E-02 +1.58263296865E+02
2.81755175518E+07 -6.76470165403E-02 +1.58155691862E+02
2.82754275428E+07 -6.96300242353E-02 +1.58027174100E+02
2.83753375338E+07 -6.58944950318E-02 +1.57923463610E+02
2.84752475248E+07 -6.68907444646E-02 +1.57824569021E+02
2.85751575158E+07 -7.08337617721E-02 +1.57693539812E+02
2.86750675068E+07 -6.86914954763E-02 +1.57575759199E+02
2.87749774977E+07 -6.89477545313E-02 +1.57511203235E+02
2.88748874887E+07 -6.56726758861E-02 +1.57362357338E+02
2.89747974797E+07 -6.94864935281E-02 +1.57253289160E+02
2.90747074707E+07 -6.77035102876E-02 +1.57127953150E+02
2.91746174617E+07 -6.87916520942E-02 +1.57004680150E+02
2.92745274527E+07 -6.99251183599E-02 +1.56912568914E+02
2.93744374437E+07 -7.11347781796E-02 +1.56787044792E+02
2.94743474347E+07 -7.23590541285E-02 +1.56678266328E+02
2.95742574257E+07 -6.89647472675E-02 +1.56562714481E+02
2.96741674167E+07 -7.31372910902E-02 +1.56440353115E+02
2.97740774077E+07 -7.45904747848E-02 +1.56352070456E+02
2.98739873987E+07 -7.20571762542E-02 +1.56240043156E+02
2.99738973897E+07 -7.07442625636E-02 +1.56093114643E+02
3.00738073807E+07 -7.42588834724E-02 +1.55980680146E+02
3.01737173717E+07 -7.21640522218E-02 +1.55887301004E+02
3.02736273627E+07 -7.59330470720E-02 +1.55737663755E+02
3.03735373537E+07 -6.88073960658E-02 +1.55639807470E+02
3.04734473447E+07 -7.91803824970E-02 +1.55480938855E+02
3.05733573357E+07 -7.73562748810E-02 +1.55399702766E+02
3.06732673267E+07 -7.68494268558E-02 +1.55260649202E+02
3.07731773177E+07 -7.62030812871E-02 +1.55160174254E+02
3.08730873087E+07 -7.50684403139E-02 +1.55041628040E+02
3.09729972997E+07 -7.57705877956E-02 +1.54898548788E+02
3.10729072907E+07 -7.36017389567E-02 +1.54794819380E+02
3.11728172817E+07 -7.81158147947E-02 +1.54654465311E+02
3.12727272727E+07 -7.62060027057E-02 +1.54535802955E+02
3.13726372637E+07 -7.90698796160E-02 +1.54411907434E+02
3.14725472547E+07 -7.78407153052E-02 +1.54269897874E+02
3.15724572457E+07 -8.06002077339E-02 +1.54167574910E+02
3.16723672367E+07 -8.16088495685E-02 +1.54063649840E+02
3.17722772277E+07 -8.00438731831E-02 +1.53892762998E+02
3.18721872187E+07 -8.17388714273E-02 +1.53768770709E+02
3.19720972097E+07 -8.34803434399E-02 +1.53662975310E+02
3.20720072007E+07 -8.01343993644E-02 +1.53538262599E+02
3.21719171917E+07 -8.12224765659E-02 +1.53418615941E+02
3.22718271827E+07 -8.25712672123E-02 +1.53256014809E+02
3.23717371737E+07 -8.51226795211E-02 +1.53154543403E+02
3.24716471647E+07 -8.08168406348E-02 +1.53006890573E+02
3.25715571557E+07 -8.63952850643E-02 +1.52861392769E+02
3.26714671467E+07 -8.27126346672E-02 +1.52758420140E+02
3.27713771377E+07 -8.38104620177E-02 +1.52606671746E+02
3.28712871287E+07 -8.40165391834E-02 +1.52478913500E+02
3.29711971197E+07 -8.88758616338E-02 +1.52326385067E+02
3.30711071107E+07 -8.98483363193E-02 +1.52187341245E+02
3.31710171017E+07 -8.83718433641E-02 +1.52061021076E+02
3.32709270927E+07 -8.62313258506E-02 +1.51929821770E+02
3.33708370837E+07 -8.98788479691E-02 +1.51770404194E+02
3.34707470747E+07 -9.12359757200E-02 +1.51651291036E+02
3.35706570657E+07 -8.88274359785E-02 +1.51542839215E+02
3.36705670567E+07 -9.01251663919E-02 +1.51373792849E+02
3.37704770477E+07 -9.27939438614E-02 +1.51223040703E+02
3.38703870387E+07 -9.27832674865E-02 +1.51097062569E+02
3.39702970297E+07 -9.35531939353E-02 +1.50979628582E+02
3.40702070207E+07 -9.23724475250E-02 +1.50831681033E+02
3.41701170117E+07 -9.23000113851E-02 +1.50694004902E+02
3.42700270027E+07 -9.58172792955E-02 +1.50546035706E+02
3.43699369937E+07 -9.42226539355E-02 +1.50394048427E+02
3.44698469847E+07 -9.62735519259E-02 +1.50252776737E+02
3.45697569757E+07 -9.45540485261E-02 +1.50101429520E+02
3.46696669667E+07 -9.78371548286E-02 +1.49957281975E+02
3.47695769577E+07 -9.59783587126E-02 +1.49803080368E+02
3.48694869487E+07 -9.72039454150E-02 +1.49678059508E+02
3.49693969397E+07 -9.80381659026E-02 +1.49503575314E+02
3.50693069307E+07 -9.76052131551E-02 +1.49361726401E+02
3.51692169217E+07 -9.76322508059E-02 +1.49208686006E+02
3.52691269127E+07 -9.82124945190E-02 +1.49074785841E+02
3.53690369037E+07 -9.97781289637E-02 +1.48922535169E+02
3.54689468947E+07 -1.00226744896E-01 +1.48758506190E+02
3.55688568857E+07 -1.04790239983E-01 +1.48624431402E+02
3.56687668767E+07 -9.98204086903E-02 +1.48449258619E+02
3.57686768677E+07 -1.03077235147E-01 +1.48293806610E+02
3.58685868587E+07 -1.04766775188E-01 +1.48143536720E+02
3.59684968497E+07 -1.00697410800E-01 +1.47967246448E+02
3.60684068407E+07 -1.05687237007E-01 +1.47862370360E+02
3.61683168317E+07 -1.03677299191E-01 +1.47691699912E+02
3.62682268227E+07 -1.05282215312E-01 +1.47507419396E+02
