# Hz   S   RI   R   50.00
! freq	real(Ex_S11_avg)	imag(Ex_S11_avg)	real(Ex_S21_avg)	imag(Ex_S21_avg)	real(Ex_S12_avg)	imag(Ex_S12_avg)	real(Ex_S22_avg)	imag(Ex_S22_avg)
1.000000000000E+08	1.572694399719E-03	-2.485908248617E-03	9.984273056003E-01	2.485908248617E-03	9.984270500858E-01	2.485507853614E-03	1.572949914150E-03	-2.485507853614E-03
1.997500000000E+08	1.504594188444E-03	4.023825188569E-04	9.984954058116E-01	-4.023825188569E-04	9.984956592531E-01	-4.028507195335E-04	1.504340746853E-03	4.028507195335E-04
2.995000000000E+08	1.580201421676E-03	2.180857600689E-03	9.984197985783E-01	-2.180857600689E-03	9.984208222515E-01	-2.181352184077E-03	1.579177748465E-03	2.181352184077E-03
3.992500000000E+08	1.656597030334E-03	3.297047290381E-03	9.983434029697E-01	-3.297047290381E-03	9.983449050366E-01	-3.297495758592E-03	1.655094963430E-03	3.297495758592E-03
4.990000000000E+08  1.845683342095E-03	4.250554361502E-03	9.981543166579E-01	-4.250554361502E-03	9.981556633843E-01	-4.250329268658E-03	1.844336615716E-03	4.250329268658E-03
5.987500000000E+08  2.105880268196E-03	5.081825385223E-03	9.978941197318E-01	-5.081825385223E-03	9.978945233367E-01	-5.080179579485E-03	2.105476663311E-03	5.080179579485E-03
6.985000000000E+08	2.335438006162E-03	5.932566403991E-03	9.976645619938E-01	-5.932566403991E-03	9.976645253746E-01	-5.930223220415E-03	2.335474625415E-03	5.930223220415E-03
7.982500000000E+08	2.551595485197E-03	6.789194595788E-03	9.974484045148E-01	-6.789194595788E-03	9.974485315144E-01	-6.786920696941E-03	2.551468485607E-03	6.786920696941E-03
8.980000000000E+08	2.806208194869E-03	7.629854493416E-03	9.971937918051E-01	-7.629854493416E-03	9.971951882774E-01	-7.627009233087E-03	2.804811722641E-03	7.627009233087E-03
9.977500000000E+08	3.096331590000E-03	8.464838262079E-03	9.969036684100E-01	-8.464838262079E-03	9.969074200547E-01	-8.460792662743E-03	3.092579945339E-03	8.460792662743E-03
1.097500000000E+09	3.303474451101E-03	9.243512612189E-03	9.966965255489E-01	-9.243512612189E-03	9.967055339078E-01	-9.237345027875E-03	3.294466092212E-03	9.237345027875E-03
1.197250000000E+09	3.449493202958E-03	9.981764661548E-03	9.965505067970E-01	-9.981764661548E-03	9.965673730203E-01	-9.972525879410E-03	3.432626979681E-03	9.972525879410E-03
1.297000000000E+09	3.935168790961E-03	1.070257775448E-02	9.960648312090E-01	-1.070257775448E-02	9.960815893703E-01	-1.069335601952E-02	3.918410629650E-03	1.069335601952E-02
1.396750000000E+09	4.663095777015E-03	1.139081681809E-02	9.953369042230E-01	-1.139081681809E-02	9.953461418420E-01	-1.138387585629E-02	4.653858158001E-03	1.138387585629E-02
1.496500000000E+09	5.130885429426E-03	1.213839158175E-02	9.948691145706E-01	-1.213839158175E-02	9.948728179799E-01	-1.213336377554E-02	5.127182020105E-03	1.213336377554E-02
1.596250000000E+09	5.418522178404E-03	1.293922454950E-02	9.945814778216E-01	-1.293922454950E-02	9.945815049721E-01	-1.293622307278E-02	5.418495027941E-03	1.293622307278E-02
1.696000000000E+09	5.849216170195E-03	1.370736355201E-02	9.941507838298E-01	-1.370736355201E-02	9.941483438491E-01	-1.370437563443E-02	5.851656150945E-03	1.370437563443E-02
1.795750000000E+09	6.381115695531E-03	1.443001263242E-02	9.936188843045E-01	-1.443001263242E-02	9.936150221202E-01	-1.442524635265E-02	6.384977879837E-03	1.442524635265E-02
1.895500000000E+09	6.887081309301E-03	1.509699335687E-02	9.931129186907E-01	-1.509699335687E-02	9.931084346345E-01	-1.509435520018E-02	6.891565365502E-03	1.509435520018E-02
1.995250000000E+09	7.373882874307E-03	1.572385261441E-02	9.926261171257E-01	-1.572385261441E-02	9.926215593034E-01	-1.572673986941E-02	7.378440696647E-03	1.572673986941E-02
2.095000000000E+09	8.082891000424E-03	1.632388929769E-02	9.919171089996E-01	-1.632388929769E-02	9.919164931638E-01	-1.632459345690E-02	8.083506836235E-03	1.632459345690E-02
2.194750000000E+09	8.954507326354E-03	1.684327463532E-02	9.910454926736E-01	-1.684327463532E-02	9.910528412615E-01	-1.683546612035E-02	8.947158738476E-03	1.683546612035E-02
2.294500000000E+09	9.547837251137E-03	1.749212427309E-02	9.904521627489E-01	-1.749212427309E-02	9.904667319377E-01	-1.747848028261E-02	9.533268062282E-03	1.747848028261E-02
2.394250000000E+09	9.948040153664E-03	1.825991329234E-02	9.900519598463E-01	-1.825991329234E-02	9.900729288464E-01	-1.824241071593E-02	9.927071153585E-03	1.824241071593E-02
2.494000000000E+09	1.071971172253E-02	1.873785175453E-02	9.892802882775E-01	-1.873785175453E-02	9.892973335867E-01	-1.872212362196E-02	1.070266641331E-02	1.872212362196E-02
2.593750000000E+09	1.175203693478E-02	1.893954521712E-02	9.882479630652E-01	-1.893954521712E-02	9.882518052706E-01	-1.892965016450E-02	1.174819472940E-02	1.892965016450E-02
2.693500000000E+09	1.271042265783E-02	1.920466955974E-02	9.872895773422E-01	-1.920466955974E-02	9.872907168036E-01	-1.919801893239E-02	1.270928319636E-02	1.919801893239E-02
2.793250000000E+09	1.365320668300E-02	1.945436302419E-02	9.863467933170E-01	-1.945436302419E-02	9.863543714843E-01	-1.944964163785E-02	1.364562851568E-02	1.944964163785E-02
2.893000000000E+09	1.451626552424E-02	1.976523278132E-02	9.854837344758E-01	-1.976523278132E-02	9.854909696014E-01	-1.976159599036E-02	1.450903039860E-02	1.976159599036E-02
2.992750000000E+09	1.531626524410E-02	2.015105054279E-02	9.846837347559E-01	-2.015105054279E-02	9.846848288252E-01	-2.014740436186E-02	1.531517117480E-02	2.014740436186E-02
3.092500000000E+09	1.615262149600E-02	2.030689928529E-02	9.838473785040E-01	-2.030689928529E-02	9.838463078350E-01	-2.030186490030E-02	1.615369216504E-02	2.030186490030E-02
3.192250000000E+09	1.701179408558E-02	2.027619718439E-02	9.829882059144E-01	-2.027619718439E-02	9.829885005752E-01	-2.026877173334E-02	1.701149942483E-02	2.026877173334E-02
3.292000000000E+09	1.782548744240E-02	2.030746443797E-02	9.821745125576E-01	-2.030746443797E-02	9.821750187126E-01	-2.030213098906E-02	1.782498128743E-02	2.030213098906E-02
3.391750000000E+09	1.860515065640E-02	2.034656358867E-02	9.813948493436E-01	-2.034656358867E-02	9.813943119523E-01	-2.034712148820E-02	1.860568804770E-02	2.034712148820E-02
3.491500000000E+09	1.943781845495E-02	2.027174450038E-02	9.805621815451E-01	-2.027174450038E-02	9.805629824049E-01	-2.027359195289E-02	1.943701759508E-02	2.027359195289E-02
3.591250000000E+09	2.032182212200E-02	2.012957078068E-02	9.796781778780E-01	-2.012957078068E-02	9.796826485334E-01	-2.012890138269E-02	2.031735146665E-02	2.012890138269E-02
3.691000000000E+09	2.098053381374E-02	2.000997431060E-02	9.790194661863E-01	-2.000997431060E-02	9.790217049158E-01	-2.000728869120E-02	2.097829508418E-02	2.000728869120E-02
3.790750000000E+09	2.144841989882E-02	1.991539857037E-02	9.785515801012E-01	-1.991539857037E-02	9.785464779345E-01	-1.991088275694E-02	2.145352206547E-02	1.991088275694E-02
3.890500000000E+09	2.193002710915E-02	1.967556204538E-02	9.780699728908E-01	-1.967556204538E-02	9.780637774797E-01	-1.967721920017E-02	2.193622252033E-02	1.967721920017E-02
3.990250000000E+09	2.241112068274E-02	1.930498877505E-02	9.775888793173E-01	-1.930498877505E-02	9.775864897636E-01	-1.931984925539E-02	2.241351023637E-02	1.931984925539E-02
4.090000000000E+09	2.294959241691E-02	1.900183120430E-02	9.770504075831E-01	-1.900183120430E-02	9.770508106406E-01	-1.901494172191E-02	2.294918935941E-02	1.901494172191E-02
4.189750000000E+09	2.353630466262E-02	1.874671888810E-02	9.764636953374E-01	-1.874671888810E-02	9.764668176369E-01	-1.874512656877E-02	2.353318236313E-02	1.874512656877E-02
4.289500000000E+09	2.386065902211E-02	1.869724687197E-02	9.761393409779E-01	-1.869724687197E-02	9.761636333219E-01	-1.869681718745E-02	2.383636667809E-02	1.869681718745E-02
4.389250000000E+09	2.397157825033E-02	1.884174447788E-02	9.760284217497E-01	-1.884174447788E-02	9.760896694916E-01	-1.885619174687E-02	2.391033050835E-02	1.885619174687E-02
4.489000000000E+09	2.422587749703E-02	1.874501631377E-02	9.757741225030E-01	-1.874501631377E-02	9.758489658295E-01	-1.878498550511E-02	2.415103417054E-02	1.878498550511E-02
4.588750000000E+09	2.459064238207E-02	1.843953592964E-02	9.754093576179E-01	-1.843953592964E-02	9.754763984151E-01	-1.851426453923E-02	2.452360158493E-02	1.851426453923E-02
4.688500000000E+09	2.482034449799E-02	1.816023752887E-02	9.751796555020E-01	-1.816023752887E-02	9.752442475585E-01	-1.824008404783E-02	2.475575244148E-02	1.824008404783E-02
4.788250000000E+09	2.492601842932E-02	1.789049221384E-02	9.750739815707E-01	-1.789049221384E-02	9.751417456434E-01	-1.794950955423E-02	2.485825435658E-02	1.794950955423E-02
4.888000000000E+09	2.504707123364E-02	1.779891325622E-02	9.749529287664E-01	-1.779891325622E-02	9.750196054744E-01	-1.785649834293E-02	2.498039452560E-02	1.785649834293E-02
4.987750000000E+09	2.519616693431E-02	1.787498180291E-02	9.748038330657E-01	-1.787498180291E-02	9.748653703867E-01	-1.794840424811E-02	2.513462961326E-02	1.794840424811E-02
5.087500000000E+09	2.531037497574E-02	1.789740288680E-02	9.746896250243E-01	-1.789740288680E-02	9.747450168512E-01	-1.796809115704E-02	2.525498314879E-02	1.796809115704E-02
5.187250000000E+09	2.539027980353E-02	1.787144586761E-02	9.746097201965E-01	-1.787144586761E-02	9.746581738398E-01	-1.792250304339E-02	2.534182616022E-02	1.792250304339E-02
5.287000000000E+09	2.546326144404E-02	1.781915476665E-02	9.745367385560E-01	-1.781915476665E-02	9.745855034172E-01	-1.786575710926E-02	2.541449658275E-02	1.786575710926E-02
5.386750000000E+09	2.552253937287E-02	1.774099682825E-02	9.744774606271E-01	-1.774099682825E-02	9.745330430506E-01	-1.779705564723E-02	2.546695694940E-02	1.779705564723E-02
5.486500000000E+09	2.575356515600E-02	1.767424947637E-02	9.742464348440E-01	-1.767424947637E-02	9.743050599888E-01	-1.773813234943E-02	2.569494001119E-02	1.773813234943E-02
5.586250000000E+09	2.615627440851E-02	1.762226689264E-02	9.738437255915E-01	-1.762226689264E-02	9.739018894149E-01	-1.769253311892E-02	2.609811058509E-02	1.769253311892E-02
5.686000000000E+09	2.638193516983E-02	1.771403275007E-02	9.736180648302E-01	-1.771403275007E-02	9.736786768856E-01	-1.778563437237E-02	2.632132311436E-02	1.778563437237E-02
5.785750000000E+09	2.643519100915E-02	1.793662693848E-02	9.735648089909E-01	-1.793662693848E-02	9.736306497331E-01	-1.800471467862E-02	2.636935026687E-02	1.800471467862E-02
5.885500000000E+09	2.639362686763E-02	1.809391463866E-02	9.736063731324E-01	-1.809391463866E-02	9.736714376359E-01	-1.816520059740E-02	2.632856236414E-02	1.816520059740E-02
5.985250000000E+09	2.626305025688E-02	1.819437974558E-02	9.737369497431E-01	-1.819437974558E-02	9.737956598783E-01	-1.827528377264E-02	2.620434012169E-02	1.827528377264E-02
6.085000000000E+09	2.630967268800E-02	1.810140360883E-02	9.736903273120E-01	-1.810140360883E-02	9.737276781218E-01	-1.817082249610E-02	2.627232187819E-02	1.817082249610E-02
6.184750000000E+09	2.652822780819E-02	1.781887006232E-02	9.734717721918E-01	-1.781887006232E-02	9.734738602769E-01	-1.785597878446E-02	2.652613972305E-02	1.785597878446E-02
6.284500000000E+09	2.693288292479E-02	1.779869793712E-02	9.730671170752E-01	-1.779869793712E-02	9.730638581623E-01	-1.781356691159E-02	2.693614183767E-02	1.781356691159E-02
6.384250000000E+09	2.752552416460E-02	1.804565108131E-02	9.724744758354E-01	-1.804565108131E-02	9.724950349550E-01	-1.804843169518E-02	2.750496504504E-02	1.804843169518E-02
6.484000000000E+09	2.777105272490E-02	1.824566459198E-02	9.722289472751E-01	-1.824566459198E-02	9.722491557095E-01	-1.825175358366E-02	2.775084429051E-02	1.825175358366E-02
6.583750000000E+09	2.767065339955E-02	1.838848378310E-02	9.723293466004E-01	-1.838848378310E-02	9.723249505100E-01	-1.841336614030E-02	2.767504949000E-02	1.841336614030E-02
6.683500000000E+09	2.784741802766E-02	1.857106590120E-02	9.721525819723E-01	-1.857106590120E-02	9.721464961867E-01	-1.859670295331E-02	2.785350381326E-02	1.859670295331E-02
6.783250000000E+09	2.829676647577E-02	1.879327992725E-02	9.717032335242E-01	-1.879327992725E-02	9.717185574697E-01	-1.880127850013E-02	2.828144253032E-02	1.880127850013E-02
6.883000000000E+09	2.876236928243E-02	1.903215204283E-02	9.712376307176E-01	-1.903215204283E-02	9.712633196603E-01	-1.903031231181E-02	2.873668033969E-02	1.903031231181E-02
6.982750000000E+09	2.925228711779E-02	1.929615368731E-02	9.707477128822E-01	-1.929615368731E-02	9.707721391660E-01	-1.929256907893E-02	2.922786083399E-02	1.929256907893E-02
7.082500000000E+09	2.957055963243E-02	1.952947474300E-02	9.704294403676E-01	-1.952947474300E-02	9.704481992644E-01	-1.953089779873E-02	2.955180073556E-02	1.953089779873E-02
7.182250000000E+09	2.970912997111E-02	1.972170944583E-02	9.702908700289E-01	-1.972170944583E-02	9.702994585811E-01	-1.973519845411E-02	2.970054141886E-02	1.973519845411E-02
7.282000000000E+09	2.988215043919E-02	1.989121922906E-02	9.701178495608E-01	-1.989121922906E-02	9.701291274413E-01	-1.990578356637E-02	2.987087255874E-02	1.990578356637E-02
7.381750000000E+09	3.008832275141E-02	2.003941275149E-02	9.699116772486E-01	-2.003941275149E-02	9.699390834372E-01	-2.004348631437E-02	3.006091656278E-02	2.004348631437E-02
7.481500000000E+09	3.038739853064E-02	2.018115274372E-02	9.696126014694E-01	-2.018115274372E-02	9.696438686176E-01	-2.017832884527E-02	3.035613138244E-02	2.017832884527E-02
7.581250000000E+09	3.078588261780E-02	2.031525808147E-02	9.692141173822E-01	-2.031525808147E-02	9.692361800912E-01	-2.030930387052E-02	3.076381990877E-02	2.030930387052E-02
7.681000000000E+09	3.124534482720E-02	2.044460550546E-02	9.687546551728E-01	-2.044460550546E-02	9.687776361566E-01	-2.043617131991E-02	3.122236384340E-02	2.043617131991E-02
7.780750000000E+09	3.176946410736E-02	2.057110172004E-02	9.682305358926E-01	-2.057110172004E-02	9.682654742875E-01	-2.056101717538E-02	3.173452571251E-02	2.056101717538E-02
7.880500000000E+09	3.211116488054E-02	2.071688526660E-02	9.678888351195E-01	-2.071688526660E-02	9.679317180906E-01	-2.071073128243E-02	3.206828190939E-02	2.071073128243E-02
7.980250000000E+09	3.225835430445E-02	2.088039814430E-02	9.677416456956E-01	-2.088039814430E-02	9.677879905653E-01	-2.088414669222E-02	3.221200943468E-02	2.088414669222E-02
8.080000000000E+09	3.249625541987E-02	2.099747412249E-02	9.675037445801E-01	-2.099747412249E-02	9.675455871851E-01	-2.100038620863E-02	3.245441281487E-02	2.100038620863E-02
8.179750000000E+09	3.282869247251E-02	2.106172027021E-02	9.671713075275E-01	-2.106172027021E-02	9.671999101734E-01	-2.105191970321E-02	3.280008982656E-02	2.105191970321E-02
8.279500000000E+09	3.318887216260E-02	2.117194904686E-02	9.668111278374E-01	-2.117194904686E-02	9.668286062157E-01	-2.115959416385E-02	3.317139378428E-02	2.115959416385E-02
8.379250000000E+09	3.358431426410E-02	2.133800920909E-02	9.664156857359E-01	-2.133800920909E-02	9.664242860492E-01	-2.133453764441E-02	3.357571395075E-02	2.133453764441E-02
8.479000000000E+09	3.397361019262E-02	2.159910201756E-02	9.660263898074E-01	-2.159910201756E-02	9.660341355563E-01	-2.159500649158E-02	3.396586444367E-02	2.159500649158E-02
8.578750000000E+09	3.435401300511E-02	2.196369121745E-02	9.656459869949E-01	-2.196369121745E-02	9.656620526565E-01	-2.194810535518E-02	3.433794734351E-02	2.194810535518E-02
8.678500000000E+09	3.454815939109E-02	2.208939316369E-02	9.654518406089E-01	-2.208939316369E-02	9.654763506813E-01	-2.207347487776E-02	3.452364931873E-02	2.207347487776E-02
8.778250000000E+09	3.453082103160E-02	2.194823222927E-02	9.654691789684E-01	-2.194823222927E-02	9.655020596993E-01	-2.194471969104E-02	3.449794030075E-02	2.194471969104E-02
8.878000000000E+09	3.469592772075E-02	2.184025777419E-02	9.653040722792E-01	-2.184025777419E-02	9.653376458118E-01	-2.184430350627E-02	3.466235418820E-02	2.184430350627E-02
8.977750000000E+09	3.506703751264E-02	2.176345057523E-02	9.649329624874E-01	-2.176345057523E-02	9.649585263157E-01	-2.176952508881E-02	3.504147368434E-02	2.176952508881E-02
9.077500000000E+09	3.556344101933E-02	2.184598792882E-02	9.644365589807E-01	-2.184598792882E-02	9.644622144719E-01	-2.184506861131E-02	3.553778552807E-02	2.184506861131E-02
9.177250000000E+09	3.620975571746E-02	2.212506075446E-02	9.637902442825E-01	-2.212506075446E-02	9.638256831462E-01	-2.210651206938E-02	3.617431685376E-02	2.210651206938E-02
9.277000000000E+09	3.661169077197E-02	2.226801691357E-02	9.633883092280E-01	-2.226801691357E-02	9.634199526526E-01	-2.224194104490E-02	3.658004734745E-02	2.224194104490E-02
9.376750000000E+09	3.672565373280E-02	2.223888261906E-02	9.632743462672E-01	-2.223888261906E-02	9.632860177973E-01	-2.221740711806E-02	3.671398220272E-02	2.221740711806E-02
9.476500000000E+09	3.655395547731E-02	2.244104774636E-02	9.634460445227E-01	-2.244104774636E-02	9.634593539612E-01	-2.242953984407E-02	3.654064603875E-02	2.242953984407E-02
9.576250000000E+09	3.606216203233E-02	2.293604840351E-02	9.639378379677E-01	-2.293604840351E-02	9.639784753606E-01	-2.294014147153E-02	3.602152463937E-02	2.294014147153E-02
9.676000000000E+09	3.653745859423E-02	2.325215817257E-02	9.634625414058E-01	-2.325215817257E-02	9.635023620403E-01	-2.325449678799E-02	3.649763795974E-02	2.325449678799E-02
9.775750000000E+09	3.818321612688E-02	2.343210897293E-02	9.618167838731E-01	-2.343210897293E-02	9.618209988992E-01	-2.341091016963E-02	3.817900110082E-02	2.341091016963E-02
9.875500000000E+09	3.914942138809E-02	2.344957221325E-02	9.608505786119E-01	-2.344957221325E-02	9.608457305813E-01	-2.342896042071E-02	3.915426941865E-02	2.342896042071E-02
9.975250000000E+09	3.925369349717E-02	2.313990428581E-02	9.607463065028E-01	-2.313990428581E-02	9.607655054655E-01	-2.315163863284E-02	3.923449453450E-02	2.315163863284E-02
1.007500000000E+10	3.932701271712E-02	2.297708193124E-02	9.606729872829E-01	-2.297708193124E-02	9.607023101460E-01	-2.300178924858E-02	3.929768985398E-02	2.300178924858E-02
1.017475000000E+10	3.937008703382E-02	2.300078315215E-02	9.606299129662E-01	-2.300078315215E-02	9.606528735542E-01	-2.301469909317E-02	3.934712644581E-02	2.301469909317E-02
1.027450000000E+10	3.945572540077E-02	2.301616464712E-02	9.605442745992E-01	-2.301616464712E-02	9.605552688522E-01	-2.301727261245E-02	3.944473114778E-02	2.301727261245E-02
1.037425000000E+10	3.959589251396E-02	2.301668117767E-02	9.604041074860E-01	-2.301668117767E-02	9.603959832830E-01	-2.300235107465E-02	3.960401671704E-02	2.300235107465E-02
1.047400000000E+10	3.996044746766E-02	2.304800598272E-02	9.600395525323E-01	-2.304800598272E-02	9.600244552662E-01	-2.302021399933E-02	3.997554473383E-02	2.302021399933E-02
1.057375000000E+10	4.060464749991E-02	2.311838871742E-02	9.593953525001E-01	-2.311838871742E-02	9.593890164184E-01	-2.307970588260E-02	4.061098358158E-02	2.307970588260E-02
1.067350000000E+10	4.107686743315E-02	2.318779921927E-02	9.589231325669E-01	-2.318779921927E-02	9.589178556994E-01	-2.314577743926E-02	4.108214430060E-02	2.314577743926E-02
1.077325000000E+10	4.133312240385E-02	2.325236643923E-02	9.586668775961E-01	-2.325236643923E-02	9.586525174625E-01	-2.321672739503E-02	4.134748253755E-02	2.321672739503E-02
1.087300000000E+10	4.172187135918E-02	2.333490884163E-02	9.582781286408E-01	-2.333490884163E-02	9.582656058281E-01	-2.330267956530E-02	4.173439417195E-02	2.330267956530E-02
1.097275000000E+10	4.227758737026E-02	2.343832931930E-02	9.577224126297E-01	-2.343832931930E-02	9.577260616721E-01	-2.340575209046E-02	4.227393832792E-02	2.340575209046E-02
1.107250000000E+10	4.287694175564E-02	2.341658779204E-02	9.571230582444E-01	-2.341658779204E-02	9.571370440275E-01	-2.338658665118E-02	4.286295597253E-02	2.338658665118E-02
1.117225000000E+10	4.353745750896E-02	2.323682574819E-02	9.564625424910E-01	-2.323682574819E-02	9.564789017716E-01	-2.321318216663E-02	4.352109822838E-02	2.321318216663E-02
1.127200000000E+10	4.390489703394E-02	2.345982759795E-02	9.560951029661E-01	-2.345982759795E-02	9.561121105234E-01	-2.343674915538E-02	4.388788947655E-02	2.343674915538E-02
1.137175000000E+10	4.388308736762E-02	2.420227129000E-02	9.561169126324E-01	-2.420227129000E-02	9.561322603026E-01	-2.417197110870E-02	4.386773969739E-02	2.417197110870E-02
