!Agilent Technologies,N5230A,MY46401241,A.07.50.90
!Agilent N5230A: A.07.50.90
!p/n: 0400LP15A0122
!Port1->PIN4, Port2->PIN8 (interchangeable I/O)
!Date: 03/25/2016
!S2P File: Measurements: S11, S21, S12, S22:
# Hz S  dB   R 50
50000000 -2.850790e+001 -1.039294e+002 -1.136560e-001 -1.542014e+001 -1.082280e-001 -1.544137e+001 -2.822993e+001 -9.692028e+001
60000000 -2.720072e+001 -1.031289e+002 -1.209364e-001 -1.849648e+001 -1.147393e-001 -1.842595e+001 -2.713496e+001 -1.018964e+002
70000000 -2.574025e+001 -1.056953e+002 -1.342475e-001 -2.142411e+001 -1.184841e-001 -2.142739e+001 -2.571996e+001 -1.064753e+002
80000000 -2.439393e+001 -1.070598e+002 -1.439123e-001 -2.449217e+001 -1.370965e-001 -2.450028e+001 -2.448578e+001 -1.069437e+002
90000000 -2.362485e+001 -1.126367e+002 -1.531331e-001 -2.751522e+001 -1.457396e-001 -2.750169e+001 -2.413143e+001 -1.078929e+002
100000000 -2.307550e+001 -1.153994e+002 -1.561403e-001 -3.054556e+001 -1.608070e-001 -3.056373e+001 -2.312472e+001 -1.121088e+002
110000000 -2.249456e+001 -1.187460e+002 -1.811394e-001 -3.364150e+001 -1.762322e-001 -3.368348e+001 -2.249524e+001 -1.159760e+002
120000000 -2.191727e+001 -1.199571e+002 -1.862561e-001 -3.680189e+001 -1.839458e-001 -3.680170e+001 -2.191148e+001 -1.167993e+002
130000000 -2.178559e+001 -1.220592e+002 -2.141489e-001 -3.984683e+001 -1.941643e-001 -3.989154e+001 -2.148355e+001 -1.195378e+002
140000000 -2.152353e+001 -1.278445e+002 -2.086423e-001 -4.291712e+001 -2.130766e-001 -4.292636e+001 -2.136792e+001 -1.261995e+002
150000000 -2.122571e+001 -1.308222e+002 -2.130278e-001 -4.608836e+001 -2.188638e-001 -4.610552e+001 -2.106832e+001 -1.261312e+002
160000000 -2.144476e+001 -1.311304e+002 -2.340114e-001 -4.918087e+001 -2.256778e-001 -4.924425e+001 -2.071412e+001 -1.283354e+002
170000000 -2.135138e+001 -1.355450e+002 -2.328500e-001 -5.245839e+001 -2.349994e-001 -5.244540e+001 -2.098260e+001 -1.306853e+002
180000000 -2.152761e+001 -1.375759e+002 -2.528517e-001 -5.565657e+001 -2.405658e-001 -5.566066e+001 -2.113510e+001 -1.350548e+002
190000000 -2.194192e+001 -1.403148e+002 -2.570423e-001 -5.895723e+001 -2.540686e-001 -5.898322e+001 -2.139430e+001 -1.344865e+002
200000000 -2.203290e+001 -1.418196e+002 -2.602208e-001 -6.224879e+001 -2.638803e-001 -6.229094e+001 -2.175569e+001 -1.366348e+002
210000000 -2.245686e+001 -1.441228e+002 -2.716271e-001 -6.560997e+001 -2.619353e-001 -6.560854e+001 -2.231816e+001 -1.377128e+002
220000000 -2.327544e+001 -1.477520e+002 -2.841384e-001 -6.896992e+001 -2.844178e-001 -6.901059e+001 -2.283248e+001 -1.398080e+002
230000000 -2.420249e+001 -1.492913e+002 -2.787400e-001 -7.242043e+001 -2.886327e-001 -7.239088e+001 -2.353790e+001 -1.397468e+002
240000000 -2.540307e+001 -1.481843e+002 -2.804441e-001 -7.590209e+001 -2.934160e-001 -7.588769e+001 -2.475132e+001 -1.394633e+002
250000000 -2.689657e+001 -1.495527e+002 -3.011381e-001 -7.955006e+001 -2.974453e-001 -7.951277e+001 -2.575790e+001 -1.360008e+002
260000000 -2.934325e+001 -1.469884e+002 -3.071736e-001 -8.310440e+001 -3.080809e-001 -8.314144e+001 -2.700542e+001 -1.307389e+002
270000000 -3.194960e+001 -1.383032e+002 -3.221917e-001 -8.683550e+001 -3.160103e-001 -8.677674e+001 -2.871813e+001 -1.217932e+002
280000000 -3.500878e+001 -1.116028e+002 -3.244460e-001 -9.066992e+001 -3.309563e-001 -9.065099e+001 -3.004980e+001 -1.070603e+002
290000000 -3.437363e+001 -6.886160e+001 -3.394147e-001 -9.453250e+001 -3.357897e-001 -9.451684e+001 -3.032044e+001 -8.197149e+001
300000000 -3.131636e+001 -4.421956e+001 -3.654475e-001 -9.846505e+001 -3.618414e-001 -9.846406e+001 -2.876663e+001 -6.635786e+001
310000000 -2.757355e+001 -3.803893e+001 -3.889692e-001 -1.025291e+002 -3.806332e-001 -1.025122e+002 -2.608339e+001 -5.239494e+001
320000000 -2.494751e+001 -3.610192e+001 -3.958607e-001 -1.066683e+002 -3.992276e-001 -1.066672e+002 -2.428193e+001 -4.647131e+001
330000000 -2.272102e+001 -3.581811e+001 -4.247245e-001 -1.108777e+002 -4.215266e-001 -1.109495e+002 -2.219389e+001 -4.456368e+001
340000000 -2.105148e+001 -3.711691e+001 -4.545617e-001 -1.152941e+002 -4.533646e-001 -1.153112e+002 -2.065054e+001 -4.505020e+001
350000000 -1.963381e+001 -3.902692e+001 -4.915039e-001 -1.196954e+002 -4.838480e-001 -1.197202e+002 -1.925824e+001 -4.607305e+001
360000000 -1.838827e+001 -4.181564e+001 -5.078118e-001 -1.243322e+002 -5.183619e-001 -1.243228e+002 -1.819728e+001 -4.815525e+001
370000000 -1.739493e+001 -4.582113e+001 -5.474396e-001 -1.291198e+002 -5.576793e-001 -1.291153e+002 -1.731682e+001 -5.059778e+001
380000000 -1.665813e+001 -4.925368e+001 -5.914981e-001 -1.340418e+002 -5.876545e-001 -1.339393e+002 -1.655865e+001 -5.377336e+001
390000000 -1.605884e+001 -5.333258e+001 -6.351295e-001 -1.390694e+002 -6.270076e-001 -1.390652e+002 -1.593960e+001 -5.686969e+001
400000000 -1.570028e+001 -5.751546e+001 -6.884009e-001 -1.443879e+002 -6.733762e-001 -1.443880e+002 -1.559021e+001 -6.085002e+001
410000000 -1.550813e+001 -6.206767e+001 -7.145319e-001 -1.498671e+002 -7.066256e-001 -1.498078e+002 -1.544043e+001 -6.438475e+001
420000000 -1.560746e+001 -6.638326e+001 -7.536727e-001 -1.556101e+002 -7.452801e-001 -1.556832e+002 -1.547059e+001 -6.806328e+001
430000000 -1.604673e+001 -7.097150e+001 -7.787790e-001 -1.617622e+002 -7.831402e-001 -1.617710e+002 -1.592101e+001 -7.158182e+001
440000000 -1.705031e+001 -7.480180e+001 -8.184623e-001 -1.683740e+002 -8.162581e-001 -1.683866e+002 -1.677645e+001 -7.434914e+001
450000000 -1.883450e+001 -7.711980e+001 -8.490359e-001 -1.755731e+002 -8.522189e-001 -1.755299e+002 -1.842478e+001 -7.532264e+001
460000000 -2.224317e+001 -7.353080e+001 -9.150593e-001 1.765517e+002 -9.088148e-001 1.766186e+002 -2.131008e+001 -6.883122e+001
470000000 -2.756679e+001 -3.447876e+001 -1.014078e+000 1.679265e+002 -1.001228e+000 1.679048e+002 -2.474083e+001 -3.509089e+001
480000000 -2.191747e+001 2.660636e+001 -1.175994e+000 1.582255e+002 -1.183345e+000 1.582110e+002 -2.086274e+001 1.349435e+001
490000000 -1.528866e+001 3.309929e+001 -1.472026e+000 1.474366e+002 -1.470572e+000 1.474255e+002 -1.500061e+001 2.379051e+001
500000000 -1.086320e+001 2.702763e+001 -1.964152e+000 1.355435e+002 -1.972143e+000 1.356031e+002 -1.077253e+001 2.011883e+001
510000000 -7.703181e+000 1.722685e+001 -2.747976e+000 1.228995e+002 -2.736247e+000 1.228726e+002 -7.650403e+000 1.170435e+001
520000000 -5.425645e+000 5.903796e+000 -3.849792e+000 1.100329e+002 -3.857029e+000 1.099708e+002 -5.376516e+000 1.181914e+000
530000000 -3.793961e+000 -5.505304e+000 -5.288237e+000 9.752119e+001 -5.282174e+000 9.752039e+001 -3.737541e+000 -9.677088e+000
540000000 -2.658163e+000 -1.647388e+001 -7.011823e+000 8.587736e+001 -7.028140e+000 8.596553e+001 -2.619447e+000 -2.031998e+001
550000000 -1.886975e+000 -2.651654e+001 -9.011535e+000 7.556592e+001 -9.005638e+000 7.577901e+001 -1.851136e+000 -2.998102e+001
560000000 -1.400254e+000 -3.532968e+001 -1.121373e+001 6.675543e+001 -1.119315e+001 6.675812e+001 -1.358292e+000 -3.865693e+001
570000000 -1.066135e+000 -4.304927e+001 -1.357227e+001 5.923920e+001 -1.354385e+001 5.924961e+001 -1.035477e+000 -4.613375e+001
580000000 -8.443170e-001 -4.968828e+001 -1.608537e+001 5.313631e+001 -1.607363e+001 5.288744e+001 -8.188990e-001 -5.267701e+001
590000000 -6.831125e-001 -5.566488e+001 -1.877577e+001 4.806009e+001 -1.876272e+001 4.792156e+001 -6.806092e-001 -5.823387e+001
600000000 -5.648509e-001 -6.086290e+001 -2.170851e+001 4.431922e+001 -2.170840e+001 4.392282e+001 -5.866268e-001 -6.316246e+001
610000000 -4.847555e-001 -6.556747e+001 -2.496564e+001 4.147773e+001 -2.503938e+001 4.181149e+001 -4.933491e-001 -6.764877e+001
620000000 -4.215798e-001 -6.979967e+001 -2.884221e+001 4.139554e+001 -2.888002e+001 4.163326e+001 -4.056971e-001 -7.167756e+001
630000000 -4.067056e-001 -7.366425e+001 -3.375521e+001 4.604002e+001 -3.380793e+001 4.632943e+001 -3.446949e-001 -7.547175e+001
640000000 -3.699137e-001 -7.708993e+001 -4.034870e+001 6.913519e+001 -4.041074e+001 6.861763e+001 -3.120458e-001 -7.901276e+001
650000000 -3.513755e-001 -8.020241e+001 -4.263108e+001 1.355110e+002 -4.261124e+001 1.345214e+002 -3.114768e-001 -8.217027e+001
660000000 -3.183148e-001 -8.313556e+001 -3.793717e+001 1.645182e+002 -3.791402e+001 1.652714e+002 -3.100123e-001 -8.503278e+001
670000000 -2.784927e-001 -8.586893e+001 -3.497572e+001 1.737476e+002 -3.492987e+001 1.728672e+002 -2.988757e-001 -8.751087e+001
680000000 -2.624144e-001 -8.847598e+001 -3.314961e+001 1.745951e+002 -3.316648e+001 1.750840e+002 -2.755010e-001 -8.986769e+001
690000000 -2.405258e-001 -9.097986e+001 -3.192458e+001 1.751896e+002 -3.190309e+001 1.749610e+002 -2.497174e-001 -9.200803e+001
700000000 -2.331773e-001 -9.332052e+001 -3.115294e+001 1.740390e+002 -3.112864e+001 1.749525e+002 -1.931414e-001 -9.420226e+001
710000000 -2.554556e-001 -9.553340e+001 -3.065021e+001 1.733005e+002 -3.061472e+001 1.739748e+002 -1.778610e-001 -9.632709e+001
720000000 -2.441638e-001 -9.740072e+001 -3.036726e+001 1.720453e+002 -3.032332e+001 1.723127e+002 -1.483885e-001 -9.838531e+001
730000000 -2.455633e-001 -9.928248e+001 -3.024006e+001 1.709232e+002 -3.021400e+001 1.705999e+002 -1.580931e-001 -1.004404e+002
740000000 -2.146045e-001 -1.008844e+002 -3.011988e+001 1.699308e+002 -3.008369e+001 1.693883e+002 -1.671374e-001 -1.022059e+002
750000000 -1.749244e-001 -1.024600e+002 -3.014081e+001 1.684183e+002 -3.016802e+001 1.685585e+002 -1.558629e-001 -1.037019e+002
760000000 -1.896665e-001 -1.047222e+002 -3.025274e+001 1.667632e+002 -3.030017e+001 1.665304e+002 -2.034030e-001 -1.057339e+002
770000000 -1.494630e-001 -1.061984e+002 -3.039472e+001 1.661219e+002 -3.041506e+001 1.659462e+002 -1.751723e-001 -1.067153e+002
780000000 -1.780668e-001 -1.078258e+002 -3.057404e+001 1.637994e+002 -3.068591e+001 1.642112e+002 -1.476311e-001 -1.082167e+002
790000000 -1.998079e-001 -1.093136e+002 -3.085240e+001 1.623396e+002 -3.083117e+001 1.633824e+002 -1.010138e-001 -1.096061e+002
800000000 -2.095257e-001 -1.106457e+002 -3.117311e+001 1.616899e+002 -3.117640e+001 1.618648e+002 -8.070713e-002 -1.110685e+002
810000000 -2.149845e-001 -1.118394e+002 -3.148226e+001 1.605828e+002 -3.144169e+001 1.609101e+002 -8.042379e-002 -1.126416e+002
820000000 -1.965342e-001 -1.130185e+002 -3.184897e+001 1.594033e+002 -3.180208e+001 1.595132e+002 -9.531356e-002 -1.140859e+002
830000000 -1.653757e-001 -1.141810e+002 -3.221515e+001 1.584273e+002 -3.218504e+001 1.588782e+002 -1.326253e-001 -1.152906e+002
840000000 -1.326020e-001 -1.154174e+002 -3.264973e+001 1.585260e+002 -3.262533e+001 1.574942e+002 -1.370914e-001 -1.163875e+002
850000000 -1.230270e-001 -1.168091e+002 -3.303276e+001 1.568277e+002 -3.302404e+001 1.563779e+002 -1.401468e-001 -1.172997e+002
860000000 -1.393480e-001 -1.180882e+002 -3.341473e+001 1.559378e+002 -3.345765e+001 1.555212e+002 -1.163950e-001 -1.182719e+002
870000000 -1.685079e-001 -1.193426e+002 -3.381705e+001 1.545227e+002 -3.392085e+001 1.551153e+002 -6.786117e-002 -1.193055e+002
880000000 -1.916098e-001 -1.203360e+002 -3.435421e+001 1.531490e+002 -3.443529e+001 1.538647e+002 -5.211962e-002 -1.203384e+002
890000000 -2.067289e-001 -1.211491e+002 -3.497244e+001 1.525227e+002 -3.493080e+001 1.530124e+002 -5.880588e-002 -1.217401e+002
900000000 -1.837764e-001 -1.218884e+002 -3.555843e+001 1.520934e+002 -3.545074e+001 1.516015e+002 -6.327792e-002 -1.226578e+002
910000000 -1.639978e-001 -1.228216e+002 -3.602077e+001 1.518412e+002 -3.592768e+001 1.517049e+002 -9.311498e-002 -1.237192e+002
920000000 -1.250522e-001 -1.237975e+002 -3.654592e+001 1.504355e+002 -3.663898e+001 1.513643e+002 -1.283641e-001 -1.245643e+002
930000000 -1.208361e-001 -1.248747e+002 -3.732075e+001 1.503070e+002 -3.730314e+001 1.502946e+002 -1.285024e-001 -1.252050e+002
940000000 -1.206162e-001 -1.259432e+002 -3.791931e+001 1.497611e+002 -3.791742e+001 1.503531e+002 -1.016897e-001 -1.260535e+002
950000000 -1.451994e-001 -1.268624e+002 -3.852290e+001 1.493098e+002 -3.842303e+001 1.487312e+002 -7.487314e-002 -1.268165e+002
960000000 -1.597351e-001 -1.276905e+002 -3.943696e+001 1.480981e+002 -3.920440e+001 1.490461e+002 -6.552263e-002 -1.275795e+002
970000000 -1.830726e-001 -1.283685e+002 -4.009170e+001 1.480354e+002 -4.008932e+001 1.480539e+002 -5.436584e-002 -1.285205e+002
980000000 -1.632955e-001 -1.289994e+002 -4.087051e+001 1.468018e+002 -4.089746e+001 1.471747e+002 -6.572464e-002 -1.293752e+002
990000000 -1.439642e-001 -1.296693e+002 -4.154566e+001 1.469603e+002 -4.164282e+001 1.473017e+002 -8.294118e-002 -1.303256e+002
1000000000 -1.100338e-001 -1.304898e+002 -4.245768e+001 1.481181e+002 -4.254426e+001 1.468685e+002 -1.057432e-001 -1.310551e+002
1010000000 -1.088759e-001 -1.313526e+002 -4.328070e+001 1.470742e+002 -4.377345e+001 1.467122e+002 -1.078475e-001 -1.317076e+002
1020000000 -1.015005e-001 -1.322160e+002 -4.490380e+001 1.473937e+002 -4.475578e+001 1.467713e+002 -1.092725e-001 -1.322607e+002
1030000000 -1.122080e-001 -1.331382e+002 -4.572322e+001 1.478311e+002 -4.575262e+001 1.479920e+002 -9.573574e-002 -1.328253e+002
1040000000 -1.289138e-001 -1.337876e+002 -4.705062e+001 1.502624e+002 -4.697081e+001 1.469878e+002 -8.462695e-002 -1.334342e+002
1050000000 -1.440826e-001 -1.343667e+002 -4.836552e+001 1.485634e+002 -4.864299e+001 1.527865e+002 -7.470682e-002 -1.341384e+002
1060000000 -1.527966e-001 -1.349677e+002 -5.030628e+001 1.552997e+002 -4.986135e+001 1.491841e+002 -5.676348e-002 -1.349320e+002
1070000000 -1.462913e-001 -1.354994e+002 -5.226316e+001 1.552628e+002 -5.206609e+001 1.538853e+002 -6.340097e-002 -1.357288e+002
1080000000 -1.152186e-001 -1.361637e+002 -5.403763e+001 1.633844e+002 -5.409356e+001 1.653768e+002 -7.087748e-002 -1.363304e+002
1090000000 -8.008999e-002 -1.368347e+002 -5.604526e+001 1.731933e+002 -5.928135e+001 1.643227e+002 -6.327744e-002 -1.369059e+002
1100000000 -1.110534e-001 -1.375020e+002 -6.027129e+001 -1.615106e+002 -5.967089e+001 -1.759406e+002 -1.066710e-001 -1.374212e+002
1110000000 -1.335774e-001 -1.382845e+002 -6.008515e+001 -1.438284e+002 -6.335294e+001 -1.309958e+002 -1.116618e-001 -1.378175e+002
1120000000 -1.370294e-001 -1.390257e+002 -6.104830e+001 -1.212589e+002 -6.365772e+001 -1.025691e+002 -9.729917e-002 -1.383078e+002
1130000000 -1.640715e-001 -1.395559e+002 -5.955679e+001 -8.848367e+001 -5.906105e+001 -7.990228e+001 -6.228943e-002 -1.388490e+002
1140000000 -1.607376e-001 -1.399783e+002 -5.580901e+001 -6.356243e+001 -5.744744e+001 -7.502496e+001 -2.657990e-002 -1.394780e+002
1150000000 -1.775590e-001 -1.403618e+002 -5.411138e+001 -6.967862e+001 -5.509731e+001 -7.219703e+001 -3.001143e-002 -1.401632e+002
1160000000 -1.584926e-001 -1.408144e+002 -5.220090e+001 -6.382270e+001 -5.216702e+001 -6.301073e+001 -3.187019e-002 -1.408155e+002
1170000000 -1.415428e-001 -1.412578e+002 -5.091465e+001 -6.654614e+001 -5.069556e+001 -6.174040e+001 -6.158818e-002 -1.413524e+002
1180000000 -1.267027e-001 -1.419452e+002 -4.896268e+001 -5.850800e+001 -4.979480e+001 -6.318643e+001 -7.023723e-002 -1.418179e+002
1190000000 -1.219705e-001 -1.425192e+002 -4.841759e+001 -6.116870e+001 -4.819255e+001 -6.158535e+001 -8.473188e-002 -1.423291e+002
1200000000 -1.439152e-001 -1.431684e+002 -4.739054e+001 -6.403745e+001 -4.793500e+001 -6.122921e+001 -8.644746e-002 -1.425760e+002
1210000000 -1.562419e-001 -1.436530e+002 -4.757256e+001 -6.124508e+001 -4.731361e+001 -5.864582e+001 -6.549022e-002 -1.429895e+002
1220000000 -1.741075e-001 -1.441027e+002 -4.659668e+001 -6.232836e+001 -4.615888e+001 -5.790152e+001 -3.921451e-002 -1.435995e+002
1230000000 -1.738911e-001 -1.443239e+002 -4.577523e+001 -6.004033e+001 -4.592981e+001 -6.121206e+001 -2.666216e-002 -1.441112e+002
1240000000 -1.889598e-001 -1.446908e+002 -4.543667e+001 -5.937412e+001 -4.522545e+001 -5.776858e+001 -2.162559e-002 -1.448313e+002
1250000000 -1.558942e-001 -1.450770e+002 -4.488940e+001 -5.912025e+001 -4.468179e+001 -5.911269e+001 -2.572748e-002 -1.453223e+002
1260000000 -1.198703e-001 -1.455033e+002 -4.461226e+001 -5.930191e+001 -4.435990e+001 -6.142591e+001 -4.540595e-002 -1.458189e+002
1270000000 -1.260857e-001 -1.460673e+002 -4.421219e+001 -5.996513e+001 -4.398081e+001 -6.003814e+001 -6.171966e-002 -1.461566e+002
1280000000 -1.090825e-001 -1.467135e+002 -4.359369e+001 -5.809034e+001 -4.327540e+001 -6.058780e+001 -7.416512e-002 -1.465038e+002
1290000000 -1.425055e-001 -1.471130e+002 -4.336121e+001 -5.983400e+001 -4.311538e+001 -6.155010e+001 -7.459018e-002 -1.468565e+002
1300000000 -1.450752e-001 -1.475330e+002 -4.302842e+001 -6.226150e+001 -4.281524e+001 -6.036491e+001 -4.824250e-002 -1.472623e+002
1310000000 -1.585261e-001 -1.478798e+002 -4.250791e+001 -6.025876e+001 -4.267367e+001 -6.076184e+001 -2.290225e-002 -1.477690e+002
1320000000 -1.516067e-001 -1.481696e+002 -4.238793e+001 -6.040230e+001 -4.221041e+001 -6.133924e+001 -2.719552e-002 -1.483727e+002
1330000000 -1.323990e-001 -1.485046e+002 -4.203286e+001 -6.126034e+001 -4.205066e+001 -6.227711e+001 -3.776057e-002 -1.487986e+002
1340000000 -8.774185e-002 -1.489111e+002 -4.161527e+001 -6.137255e+001 -4.184394e+001 -6.090265e+001 -5.963574e-002 -1.492906e+002
1350000000 -8.476157e-002 -1.495068e+002 -4.160588e+001 -6.160256e+001 -4.163903e+001 -6.326498e+001 -6.971311e-002 -1.496014e+002
1360000000 -8.685306e-002 -1.499462e+002 -4.158657e+001 -6.207746e+001 -4.130123e+001 -6.267688e+001 -9.360656e-002 -1.498426e+002
1370000000 -1.108798e-001 -1.505583e+002 -4.121315e+001 -6.405599e+001 -4.124084e+001 -6.259615e+001 -9.708297e-002 -1.502004e+002
1380000000 -1.185703e-001 -1.509187e+002 -4.105670e+001 -6.222845e+001 -4.128799e+001 -6.345845e+001 -8.015781e-002 -1.504485e+002
1390000000 -1.195794e-001 -1.511696e+002 -4.087806e+001 -6.390971e+001 -4.105473e+001 -6.259597e+001 -7.349297e-002 -1.508401e+002
1400000000 -1.299364e-001 -1.515268e+002 -4.061928e+001 -6.387551e+001 -4.064342e+001 -6.399239e+001 -5.732100e-002 -1.512348e+002
1410000000 -1.233061e-001 -1.519459e+002 -4.051553e+001 -6.384653e+001 -4.074089e+001 -6.199654e+001 -5.616301e-002 -1.516648e+002
1420000000 -1.076007e-001 -1.523078e+002 -4.051262e+001 -6.373758e+001 -4.060680e+001 -6.469521e+001 -6.169621e-002 -1.520406e+002
1430000000 -1.010668e-001 -1.526776e+002 -4.032045e+001 -6.426196e+001 -4.034958e+001 -6.425230e+001 -8.263463e-002 -1.524087e+002
1440000000 -9.550431e-002 -1.531162e+002 -4.007767e+001 -6.408578e+001 -4.004865e+001 -6.398565e+001 -8.752719e-002 -1.527608e+002
1450000000 -9.516252e-002 -1.536108e+002 -4.002909e+001 -6.510437e+001 -4.002996e+001 -6.369715e+001 -8.684410e-002 -1.529474e+002
1460000000 -1.301507e-001 -1.540249e+002 -4.011320e+001 -6.525354e+001 -3.994487e+001 -6.555776e+001 -9.259533e-002 -1.532276e+002
1470000000 -1.605834e-001 -1.543050e+002 -3.996028e+001 -6.482642e+001 -3.979603e+001 -6.570438e+001 -8.210728e-002 -1.535549e+002
1480000000 -1.388983e-001 -1.545483e+002 -3.961765e+001 -6.565156e+001 -3.970019e+001 -6.560597e+001 -6.218975e-002 -1.538835e+002
1490000000 -1.472378e-001 -1.547637e+002 -3.958512e+001 -6.550142e+001 -3.955666e+001 -6.492973e+001 -3.782939e-002 -1.542342e+002
1500000000 -1.362023e-001 -1.552726e+002 -3.937534e+001 -6.766009e+001 -3.959249e+001 -6.547278e+001 -4.289716e-002 -1.548522e+002
1510000000 -1.440597e-001 -1.555900e+002 -3.958371e+001 -6.747668e+001 -3.940595e+001 -6.643686e+001 -7.190961e-002 -1.553513e+002
1520000000 -1.450066e-001 -1.559903e+002 -3.942908e+001 -6.810669e+001 -3.956606e+001 -6.678867e+001 -6.822655e-002 -1.555583e+002
1530000000 -1.312828e-001 -1.563465e+002 -3.932158e+001 -6.787320e+001 -3.942107e+001 -6.782877e+001 -8.740451e-002 -1.558248e+002
1540000000 -1.617840e-001 -1.566515e+002 -3.934597e+001 -6.730956e+001 -3.918938e+001 -6.696964e+001 -7.446969e-002 -1.561054e+002
1550000000 -1.760762e-001 -1.569371e+002 -3.911330e+001 -6.702387e+001 -3.929743e+001 -6.770535e+001 -4.611176e-002 -1.563314e+002
