# Hz S RI R 50
! CMT, S5048, 17087083, 18.1.5/2
! Date: 07/03/2018 15:10:09
! Data: Format (Calibration Info)
! Freq                      S11: Re/Im (F2)                       S21: Re/Im (F2)                       S12: Re/Im (F2)                       S22: Re/Im (F2)            
1.00000000000E+06 +9.99973508512E-01 -2.35035591865E-03 -2.33271200371E-05 +4.36693970458E-06 +3.57075007504E-06 +2.26099215738E-05 -9.97632247165E-01 +8.65263679673E-03
1.09990999100E+06 +9.99909483441E-01 -3.65954365134E-03 -1.30120456804E-05 +1.59095470176E-05 -1.71089256777E-05 -8.05726665682E-06 -9.97822275351E-01 +9.83905656760E-03
1.19981998200E+06 +9.99813940243E-01 -5.08851098663E-03 -1.51773439934E-05 -1.60890460344E-05 -4.78193834144E-05 +3.11074145230E-05 -9.98020238941E-01 +1.10187495214E-02
1.29972997300E+06 +9.99852386046E-01 -6.09414659715E-03 +1.43988741256E-05 -1.47940900706E-05 +2.27395479978E-05 +2.00907612568E-05 -9.97883414608E-01 +1.22258545149E-02
1.39963996400E+06 +9.99794354160E-01 -7.65502518031E-03 -4.42529473921E-05 +5.09483971633E-05 +1.95604922365E-05 -5.29200744226E-06 -9.98013195948E-01 +1.31606714793E-02
1.49954995500E+06 +1.00001770808E+00 -9.16291741983E-03 +2.78208156802E-05 +2.06894506607E-05 -8.94153001139E-05 -4.08818097984E-05 -9.97944584499E-01 +1.45236447078E-02
1.59945994599E+06 +9.99932588352E-01 -1.02832945781E-02 -4.30841851267E-05 +3.40087084634E-06 -4.79314070339E-05 -1.55367987831E-05 -9.97912332334E-01 +1.54700645467E-02
1.69936993699E+06 +9.99917526595E-01 -1.17144627372E-02 -9.69592071260E-06 -4.88865761081E-05 -4.48848523169E-05 -9.46846738909E-06 -9.98014441242E-01 +1.68600936941E-02
1.79927992799E+06 +9.99767767355E-01 -1.31026189713E-02 -1.00798110993E-04 -7.95654811645E-06 +6.09289142739E-06 -2.32908780053E-06 -9.97991657330E-01 +1.82152615107E-02
1.89918991899E+06 +9.99731446062E-01 -1.44303391569E-02 -9.29399368422E-05 -1.94431884743E-05 -6.00819169087E-05 -1.83349443069E-05 -9.98047011598E-01 +1.94032426209E-02
1.99909990999E+06 +9.99854390274E-01 -1.56440129611E-02 -8.69186931529E-05 +2.87774900263E-06 -1.76519364559E-05 +2.23843049518E-05 -9.97865469128E-01 +2.04193134157E-02
2.09900990099E+06 +9.99881237863E-01 -1.71206078118E-02 -4.54961421404E-05 +4.67935606569E-05 -4.99685987192E-05 -2.58767817381E-05 -9.98099196343E-01 +2.16719226156E-02
2.19891989199E+06 +9.99826517389E-01 -1.84054161434E-02 -3.55386707423E-05 -1.06070965661E-05 -6.48258692441E-05 +5.76039895263E-05 -9.97938650229E-01 +2.29071836381E-02
2.29882988299E+06 +9.99987179941E-01 -1.97330528216E-02 -6.79340665610E-05 -3.79032618665E-05 -5.61287982714E-05 -1.15330654684E-05 -9.97986549386E-01 +2.39806903127E-02
2.39873987399E+06 +9.99647402811E-01 -2.11898311128E-02 -7.06512129271E-05 -3.72967560753E-05 -6.21501175902E-05 +1.52539178660E-05 -9.97944802542E-01 +2.52967838516E-02
2.49864986499E+06 +9.99826687253E-01 -2.25071741100E-02 -5.92898898303E-05 +1.33771841375E-05 -1.10041222701E-04 +1.84712130803E-05 -9.97872366293E-01 +2.64131621833E-02
2.59855985599E+06 +9.99451488086E-01 -2.37728725322E-02 -1.01101871091E-04 +1.17123294102E-05 -9.33338268237E-05 +2.29946154241E-05 -9.98003803582E-01 +2.77209408529E-02
2.69846984698E+06 +9.99609426998E-01 -2.51757067582E-02 -1.25699113150E-04 +2.60294814948E-05 -1.42831444858E-04 -6.84700116146E-06 -9.97891883011E-01 +2.86916802626E-02
2.79837983798E+06 +9.99815406621E-01 -2.65261361490E-02 -1.18438179347E-04 -2.60186610581E-06 -1.90643624737E-04 +9.47464998254E-05 -9.97944700906E-01 +3.00990308537E-02
2.89828982898E+06 +9.99714062204E-01 -2.78771306470E-02 -1.06350973512E-04 -2.79731870055E-05 -1.60068288725E-04 +2.39057481040E-05 -9.97822364415E-01 +3.12129368048E-02
2.99819981998E+06 +9.99603075823E-01 -2.93263297582E-02 -1.51579398758E-04 -4.54384699798E-06 -9.09200031123E-05 +2.56866953804E-05 -9.97913944675E-01 +3.24402911040E-02
3.09810981098E+06 +9.99536559987E-01 -3.06922552207E-02 -1.99764518325E-04 +4.67166355278E-05 -1.38698049616E-04 -6.58987129329E-06 -9.97781186694E-01 +3.35292130149E-02
3.19801980198E+06 +9.99479805661E-01 -3.19901046854E-02 -1.23893264907E-04 +5.11896587144E-05 -1.22919701971E-04 +2.78896286660E-05 -9.97718051423E-01 +3.48826179943E-02
3.29792979298E+06 +9.99418219874E-01 -3.34895453637E-02 -1.51473494294E-04 -5.09647366296E-06 -9.75791315586E-05 +9.13715383984E-05 -9.97711943168E-01 +3.59344761162E-02
3.39783978398E+06 +9.99488573380E-01 -3.47564190701E-02 -1.84084665965E-04 +2.10384933096E-05 -1.55597118256E-04 +4.89989340543E-05 -9.97621154171E-01 +3.74656547974E-02
3.49774977498E+06 +9.99489075808E-01 -3.60453558064E-02 -1.49471307922E-04 +1.97729747253E-05 -1.66972633428E-04 +2.99763392801E-05 -9.97727447928E-01 +3.83830882855E-02
3.59765976598E+06 +9.99346485079E-01 -3.71982044542E-02 -1.80161512465E-04 +9.42038216079E-06 -2.48595118074E-04 +4.43212387208E-05 -9.97563937300E-01 +3.96651336322E-02
3.69756975698E+06 +9.99163684962E-01 -3.88319222631E-02 -1.98546960793E-04 -8.92714973306E-06 -1.80464459249E-04 -6.56426250156E-06 -9.97648238988E-01 +4.07594496839E-02
3.79747974797E+06 +9.99178384188E-01 -4.01103290409E-02 -2.48027533566E-04 +9.40422832734E-06 -1.67205380839E-04 +1.88694942133E-05 -9.97422180277E-01 +4.19324117607E-02
3.89738973897E+06 +9.99226374245E-01 -4.15328290033E-02 -2.69383482290E-04 +9.93589783438E-05 -2.31965869334E-04 +2.30264666525E-05 -9.97459681815E-01 +4.31277933673E-02
3.99729972997E+06 +9.99043415219E-01 -4.28200756719E-02 -2.61857986041E-04 +2.65237528096E-05 -3.04601061572E-04 +5.99573895339E-05 -9.97446345374E-01 +4.44233641331E-02
4.09720972097E+06 +9.98884290855E-01 -4.43359411164E-02 -2.22883817282E-04 +3.41196199743E-05 -2.83258458680E-04 +2.29148294242E-05 -9.97314226746E-01 +4.55821242705E-02
4.19711971197E+06 +9.99082445536E-01 -4.55586885073E-02 -2.91387867405E-04 +8.16970285185E-05 -2.57123392195E-04 +2.66773432273E-05 -9.97087179491E-01 +4.67073212775E-02
4.29702970297E+06 +9.98950841757E-01 -4.70373983403E-02 -2.74441020488E-04 +1.64472428782E-05 -2.80941727779E-04 +3.09842216097E-05 -9.97000067436E-01 +4.79157241231E-02
4.39693969397E+06 +9.98938147266E-01 -4.81149029036E-02 -2.41558751144E-04 +2.80185406516E-05 -2.54158756142E-04 -1.18755166902E-05 -9.97219591625E-01 +4.91388889812E-02
4.49684968497E+06 +9.98955445874E-01 -4.96707790709E-02 -2.46068381786E-04 +6.40583224337E-05 -2.97150780110E-04 +3.11693140299E-05 -9.97029647335E-01 +5.02350118975E-02
4.59675967597E+06 +9.98768997082E-01 -5.10843495399E-02 -2.92188632990E-04 +8.38925726164E-06 -2.97426180574E-04 +4.81439436832E-05 -9.96893322286E-01 +5.16054581687E-02
4.69666966697E+06 +9.98791390626E-01 -5.23432442003E-02 -2.77082196134E-04 +5.61050720168E-05 -2.72235320383E-04 +3.56203663403E-05 -9.96968346832E-01 +5.25102074419E-02
4.79657965797E+06 +9.98595148345E-01 -5.38088337711E-02 -2.83235383926E-04 +4.52046984848E-05 -3.66299174605E-04 +2.86680371201E-05 -9.96835174616E-01 +5.41892401986E-02
4.89648964896E+06 +9.98804720231E-01 -5.50535620218E-02 -4.19628589564E-04 +2.83670232026E-05 -3.96686249534E-04 +6.52082025486E-05 -9.96567811865E-01 +5.52146751773E-02
4.99639963996E+06 +9.98692655878E-01 -5.62266472872E-02 -3.71724427348E-04 +3.39898388139E-05 -3.86236862624E-04 +6.83532462523E-05 -9.96753320538E-01 +5.63237909093E-02
5.09630963096E+06 +9.98385322752E-01 -5.76913497260E-02 -3.69118654513E-04 -1.01103722089E-05 -3.33531249694E-04 -3.97109973587E-05 -9.96707916169E-01 +5.74618509096E-02
5.19621962196E+06 +9.98195875698E-01 -5.92077819279E-02 -3.94886778282E-04 +5.40564982275E-05 -3.85143807815E-04 +8.82254184143E-05 -9.96477664614E-01 +5.87126993910E-02
5.29612961296E+06 +9.98148155143E-01 -6.04057449629E-02 -3.66619914261E-04 +6.21329183551E-05 -3.66394653807E-04 +6.45577558009E-05 -9.96414898620E-01 +5.99583956831E-02
5.39603960396E+06 +9.98212620006E-01 -6.19182516740E-02 -3.49832037361E-04 -1.20258205922E-05 -4.61790478560E-04 +4.53409329971E-05 -9.96349325256E-01 +6.11536046130E-02
5.49594959496E+06 +9.97992613047E-01 -6.33140553863E-02 -4.19069211265E-04 +7.03032811946E-05 -4.22763902278E-04 +1.18618727564E-04 -9.96407278348E-01 +6.22980247964E-02
5.59585958596E+06 +9.98187044601E-01 -6.46042226702E-02 -4.04718915454E-04 +8.14495935480E-05 -4.12684547737E-04 +7.47046188115E-05 -9.96216141125E-01 +6.34133405197E-02
5.69576957696E+06 +9.97915906379E-01 -6.61600975948E-02 -4.52616239370E-04 +2.72941373337E-05 -5.01476650694E-04 +6.43283880743E-05 -9.95916666607E-01 +6.49232104209E-02
5.79567956796E+06 +9.97917643048E-01 -6.72811198539E-02 -4.57619338679E-04 +6.61756674553E-05 -4.63949315728E-04 +7.06209195012E-05 -9.95975865281E-01 +6.59046483293E-02
5.89558955896E+06 +9.97839114328E-01 -6.85628398900E-02 -4.93239568439E-04 +8.88625719141E-05 -5.59858369888E-04 +1.89809231834E-05 -9.95930286949E-01 +6.69459502468E-02
5.99549954995E+06 +9.97509796216E-01 -7.00392786814E-02 -5.45521647766E-04 +9.93037954731E-05 -4.56419595985E-04 +7.37162377684E-06 -9.95789365086E-01 +6.83159014733E-02
6.09540954095E+06 +9.97306741960E-01 -7.13478266736E-02 -5.65031310698E-04 +1.10098488957E-04 -5.43033047589E-04 +1.04442236023E-04 -9.95719809769E-01 +6.95332234537E-02
6.19531953195E+06 +9.97439648947E-01 -7.27162452461E-02 -6.03363036826E-04 +1.46811112177E-04 -5.67878421184E-04 +4.69565219240E-05 -9.95489000378E-01 +7.06436502695E-02
6.29522952295E+06 +9.97353708812E-01 -7.42413052084E-02 -5.47819834711E-04 +1.17056111968E-04 -6.10481209260E-04 +8.61690554894E-05 -9.95457604800E-01 +7.19977094486E-02
6.39513951395E+06 +9.97024956096E-01 -7.56650711737E-02 -6.42018627650E-04 +6.58605852253E-05 -5.73001746214E-04 +9.46131867179E-05 -9.95456770171E-01 +7.32353601021E-02
6.49504950495E+06 +9.97154330473E-01 -7.68936705725E-02 -6.28097607211E-04 +1.28015113378E-04 -5.81994189322E-04 +9.65009141027E-05 -9.95495376967E-01 +7.44280419076E-02
6.59495949595E+06 +9.97131288769E-01 -7.85016963401E-02 -6.31214269484E-04 +9.30851366637E-05 -6.14427904321E-04 +9.85815835143E-05 -9.95348834225E-01 +7.54510368230E-02
6.69486948695E+06 +9.96934003648E-01 -7.97542058205E-02 -6.63535943914E-04 +6.34294035710E-05 -6.69261773666E-04 +4.62980408412E-05 -9.95129695154E-01 +7.66850083119E-02
6.79477947795E+06 +9.96812088490E-01 -8.12671508558E-02 -6.69158965703E-04 +1.33076597003E-04 -7.15621166486E-04 +8.41930866567E-05 -9.94994555620E-01 +7.78389523341E-02
6.89468946895E+06 +9.96754107321E-01 -8.26123773377E-02 -6.77645103427E-04 +7.81464566552E-05 -6.78527728406E-04 +7.85896033110E-05 -9.94776932556E-01 +7.90642997912E-02
6.99459945995E+06 +9.96542306189E-01 -8.39739411236E-02 -7.19276387082E-04 +3.65495656522E-05 -7.75481758145E-04 +1.35354102613E-04 -9.94957288714E-01 +8.03508023020E-02
7.09450945095E+06 +9.96473317991E-01 -8.52164211349E-02 -7.82784268667E-04 +8.28830203792E-05 -7.45338359856E-04 +1.19945437994E-04 -9.94771350968E-01 +8.15376074764E-02
7.19441944194E+06 +9.96377858446E-01 -8.66446602275E-02 -7.08172808722E-04 +9.50343391368E-05 -7.35021064667E-04 +1.40552404381E-04 -9.94602270507E-01 +8.29435227922E-02
7.29432943294E+06 +9.96329458512E-01 -8.79879732558E-02 -8.15381609776E-04 +1.29452325704E-04 -7.77494201315E-04 +1.08548068825E-04 -9.94300040169E-01 +8.38134361339E-02
7.39423942394E+06 +9.96013362177E-01 -8.93233455769E-02 -8.16990097455E-04 +1.20812181169E-04 -7.81587237354E-04 +1.38110040018E-04 -9.94280414098E-01 +8.49372557049E-02
7.49414941494E+06 +9.95983933421E-01 -9.08856111602E-02 -8.13096569312E-04 +1.18179496530E-04 -7.97418868454E-04 +8.63452102667E-05 -9.94034932754E-01 +8.64734950958E-02
7.59405940594E+06 +9.95956769205E-01 -9.19653559405E-02 -8.71532442276E-04 +1.71293899837E-04 -9.36731197849E-04 +1.23964614871E-04 -9.94196558470E-01 +8.73503486312E-02
7.69396939694E+06 +9.95961702963E-01 -9.38372941817E-02 -8.91868614032E-04 +1.21412647235E-04 -8.68709824059E-04 +1.76300189594E-04 -9.94028151615E-01 +8.86160376735E-02
7.79387938794E+06 +9.95372319748E-01 -9.49114535652E-02 -9.13371907295E-04 +1.17118017191E-04 -8.61477506701E-04 +1.66247171127E-04 -9.93807622384E-01 +8.98919271815E-02
7.89378937894E+06 +9.95431201126E-01 -9.64732664407E-02 -8.76940042332E-04 +1.80675923273E-04 -8.89066156094E-04 +1.11144284319E-04 -9.93931993802E-01 +9.11295313869E-02
7.99369936994E+06 +9.95417194142E-01 -9.75758073500E-02 -9.52208171754E-04 +1.25255183231E-04 -9.56290150082E-04 +1.48365672030E-04 -9.93687978332E-01 +9.24395941234E-02
8.09360936094E+06 +9.95328483746E-01 -9.92800644897E-02 -9.15943444195E-04 +1.12776972129E-04 -9.73745788086E-04 +1.22836476604E-04 -9.93295010192E-01 +9.35824388833E-02
8.19351935194E+06 +9.95154735887E-01 -1.00574655441E-01 -9.64578143215E-04 +1.42521710953E-04 -1.05367273902E-03 +1.09376832527E-04 -9.93330602921E-01 +9.48935641670E-02
8.29342934293E+06 +9.95015024018E-01 -1.02070612955E-01 -9.82493099289E-04 +1.33245043402E-04 -9.73190545753E-04 +1.47824629552E-04 -9.93172034828E-01 +9.58526311294E-02
8.39333933393E+06 +9.94597403071E-01 -1.03447100341E-01 -1.07594810789E-03 +9.29278104847E-05 -1.05285468885E-03 +1.34357234917E-04 -9.93103222986E-01 +9.72102556408E-02
8.49324932493E+06 +9.94593099113E-01 -1.04721726400E-01 -1.02056760818E-03 +1.50185777771E-04 -1.02235684184E-03 +1.39547902469E-04 -9.92823216204E-01 +9.86959004700E-02
8.59315931593E+06 +9.94618321388E-01 -1.05925180140E-01 -1.10727056339E-03 +1.62008490000E-04 -1.06415853484E-03 +1.42719288443E-04 -9.92809233761E-01 +9.94343773991E-02
8.69306930693E+06 +9.94593431236E-01 -1.07545432844E-01 -1.09437118173E-03 +1.56278133152E-04 -1.12108382346E-03 +9.76881812789E-05 -9.92716066888E-01 +1.00982169883E-01
8.79297929793E+06 +9.94132093738E-01 -1.08865567273E-01 -1.06453706126E-03 +1.66459005154E-04 -1.17076120149E-03 +1.68899191186E-04 -9.92596537469E-01 +1.02155480267E-01
8.89288928893E+06 +9.94010210095E-01 -1.10499393208E-01 -1.18657036478E-03 +2.00545092349E-04 -1.11107844894E-03 +1.71260856314E-04 -9.92195698573E-01 +1.03237428272E-01
8.99279927993E+06 +9.93999935279E-01 -1.11723955897E-01 -1.15626224784E-03 +1.92801566850E-04 -1.20169549233E-03 +1.56473800090E-04 -9.92212588784E-01 +1.04451772202E-01
9.09270927093E+06 +9.93736262340E-01 -1.13095797971E-01 -1.17733094947E-03 +1.76822942667E-04 -1.21686835120E-03 +2.29491350376E-04 -9.92167555741E-01 +1.05825454241E-01
9.19261926193E+06 +9.93494232773E-01 -1.14536351455E-01 -1.20585091049E-03 +1.58024879455E-04 -1.20891978707E-03 +1.45743777634E-04 -9.91906915249E-01 +1.06942156484E-01
9.29252925293E+06 +9.93472315392E-01 -1.15818569732E-01 -1.23885118618E-03 +1.79464244604E-04 -1.22716172680E-03 +1.91102943433E-04 -9.91922883652E-01 +1.08016033644E-01
9.39243924392E+06 +9.93255578490E-01 -1.17332671043E-01 -1.25905131534E-03 +1.45844664309E-04 -1.26397859010E-03 +1.64810050870E-04 -9.91697961453E-01 +1.09109773256E-01
9.49234923492E+06 +9.93018469460E-01 -1.18863853529E-01 -1.36263358879E-03 +2.27889200820E-04 -1.29231657210E-03 +2.66049067383E-04 -9.91594124939E-01 +1.10652761950E-01
9.59225922592E+06 +9.93135222112E-01 -1.20319115971E-01 -1.33290176258E-03 +2.23012493797E-04 -1.37196944825E-03 +2.35505989278E-04 -9.91370519916E-01 +1.11681227053E-01
9.69216921692E+06 +9.92695541591E-01 -1.21559844995E-01 -1.32345441894E-03 +2.40990905014E-04 -1.40043295166E-03 +2.59941628876E-04 -9.91160616800E-01 +1.13040406771E-01
9.79207920792E+06 +9.92528199524E-01 -1.22799339053E-01 -1.37478884115E-03 +2.38544988056E-04 -1.39626210137E-03 +2.45804408874E-04 -9.91076526580E-01 +1.14058226713E-01
9.89198919892E+06 +9.92354004150E-01 -1.24588250969E-01 -1.42650038464E-03 +2.03034171667E-04 -1.43521589710E-03 +2.44046142260E-04 -9.90741849568E-01 +1.15478921624E-01
9.99189918992E+06 +9.92181594362E-01 -1.25824825502E-01 -1.47936201675E-03 +2.98832733341E-04 -1.45054306585E-03 +2.30744306227E-04 -9.90620653848E-01 +1.16337684634E-01
1.00918091809E+07 +9.91955327408E-01 -1.27308813924E-01 -1.46835140658E-03 +2.75654656069E-04 -1.48557335233E-03 +1.70449592880E-04 -9.90698978836E-01 +1.17933699129E-01
1.01917191719E+07 +9.92127677905E-01 -1.28681322989E-01 -1.55554134946E-03 +2.80007254303E-04 -1.55459332047E-03 +2.54870010743E-04 -9.90470101990E-01 +1.19144086899E-01
1.02916291629E+07 +9.91712047168E-01 -1.30169378271E-01 -1.51769789542E-03 +1.93034600983E-04 -1.54186277214E-03 +1.50653262459E-04 -9.90576481951E-01 +1.20179367085E-01
1.03915391539E+07 +9.91309350553E-01 -1.31641575410E-01 -1.50029802226E-03 +2.61800423810E-04 -1.56650581682E-03 +2.88167898489E-04 -9.89925620034E-01 +1.21368127164E-01
1.04914491449E+07 +9.91197864477E-01 -1.33042390032E-01 -1.59158257846E-03 +2.97304032559E-04 -1.56502327253E-03 +2.68411196777E-04 -9.89876110059E-01 +1.22658045267E-01
1.05913591359E+07 +9.91314511234E-01 -1.34274330750E-01 -1.61540996093E-03 +3.06659844671E-04 -1.54531548201E-03 +2.55919330919E-04 -9.89851821385E-01 +1.24044622056E-01
1.06912691269E+07 +9.91108534674E-01 -1.35944750401E-01 -1.67972524457E-03 +3.00139686362E-04 -1.63953409496E-03 +2.58858811226E-04 -9.89614144749E-01 +1.25278063994E-01
1.07911791179E+07 +9.90808924387E-01 -1.37388425143E-01 -1.68913203808E-03 +2.93582839753E-04 -1.68038497695E-03 +2.83226058352E-04 -9.89217242135E-01 +1.26428219279E-01
1.08910891089E+07 +9.90327889628E-01 -1.38825235573E-01 -1.74952344849E-03 +3.15898156128E-04 -1.71105861604E-03 +3.19518268616E-04 -9.89135352254E-01 +1.27763293086E-01
1.09909990999E+07 +9.90336259671E-01 -1.39882943266E-01 -1.76239421660E-03 +2.77244062175E-04 -1.76880596669E-03 +3.37694409382E-04 -9.88997483201E-01 +1.29116947857E-01
1.10909090909E+07 +9.90048166800E-01 -1.41526528582E-01 -1.79440671118E-03 +2.68396824469E-04 -1.74369359213E-03 +2.36852083250E-04 -9.88933658940E-01 +1.30475588398E-01
1.11908190819E+07 +9.89832337663E-01 -1.42910702856E-01 -1.82136603691E-03 +3.76950692411E-04 -1.77546126466E-03 +3.39893578581E-04 -9.88637877690E-01 +1.31573334782E-01
1.12907290729E+07 +9.89989332488E-01 -1.44388485435E-01 -1.83309245688E-03 +3.66102102817E-04 -1.88741633826E-03 +3.21139335853E-04 -9.88333236072E-01 +1.32904727712E-01
1.13906390639E+07 +9.89612993877E-01 -1.45802829449E-01 -1.88884449006E-03 +3.29431998702E-04 -1.86383590666E-03 +3.50045906414E-04 -9.88114147081E-01 +1.33794615000E-01
1.14905490549E+07 +9.89322315179E-01 -1.47398049330E-01 -1.89588757767E-03 +4.07778017783E-04 -1.88492919936E-03 +3.29913595941E-04 -9.88129116065E-01 +1.35253082083E-01
1.15904590459E+07 +9.88895057219E-01 -1.48273642518E-01 -1.91482291989E-03 +4.05405178046E-04 -1.94536610467E-03 +4.04712741353E-04 -9.88019505991E-01 +1.36429955453E-01
1.16903690369E+07 +9.88857431031E-01 -1.50070718957E-01 -2.05510749953E-03 +3.82824128405E-04 -1.98321419538E-03 +3.29831224262E-04 -9.88024971384E-01 +1.37595338315E-01
1.17902790279E+07 +9.88655830145E-01 -1.51721894681E-01 -1.96743921162E-03 +3.70101216029E-04 -2.04334010173E-03 +3.84292880142E-04 -9.87589842613E-01 +1.39068817001E-01
1.18901890189E+07 +9.88552674016E-01 -1.53062232044E-01 -2.08817470246E-03 +3.83717639767E-04 -2.05491961743E-03 +3.79846280689E-04 -9.87267250949E-01 +1.40099822112E-01
1.19900990099E+07 +9.87944696706E-01 -1.54580162504E-01 -2.04966197625E-03 +3.68525735626E-04 -2.08143938378E-03 +3.91967970783E-04 -9.87295455375E-01 +1.41446362382E-01
1.20900090009E+07 +9.87784401201E-01 -1.56041347819E-01 -2.10265233302E-03 +4.45747554909E-04 -2.13265487477E-03 +4.45865966925E-04 -9.87219315097E-01 +1.42502975708E-01
1.21899189919E+07 +9.87818158205E-01 -1.57528449137E-01 -2.20517573158E-03 +4.68151932983E-04 -2.19721210281E-03 +3.83696551077E-04 -9.86651782254E-01 +1.43724858300E-01
1.22898289829E+07 +9.87427250902E-01 -1.58877723086E-01 -2.16068214935E-03 +4.70297107383E-04 -2.23432778216E-03 +3.95862540131E-04 -9.86648308547E-01 +1.44952324054E-01
1.23897389739E+07 +9.87572773225E-01 -1.60444472994E-01 -2.21292895419E-03 +3.96657107641E-04 -2.23865241902E-03 +4.32724609085E-04 -9.86522410808E-01 +1.46453211757E-01
1.24896489649E+07 +9.87393971746E-01 -1.62093625994E-01 -2.26647823763E-03 +4.37285408713E-04 -2.23822737278E-03 +4.64690674632E-04 -9.85664429297E-01 +1.47589586431E-01
